(1591372012.436348) vcan1 60A#01C24910
(1591372012.437366) vcan1 60B#5F5F2BCC80200193
(1591372012.437367) vcan1 301#8004000000000000
(1591372012.437368) vcan1 300#0001
(1591372012.437369) vcan1 60C#5F8CE33A0220E8
(1591372012.438365) vcan1 60D#5F7D0FA170800A0C
(1591372012.486440) vcan1 301#8003000000000000
(1591372012.487421) vcan1 300#0001
(1591372012.506534) vcan1 60A#01C24B10
(1591372012.507528) vcan1 60B#5F5F2BCC80200193
(1591372012.507528) vcan1 60C#5F8CE33A0220E8
(1591372012.507529) vcan1 60D#5F7D2FA170800A0C
(1591372012.536451) vcan1 301#8003000000000000
(1591372012.537444) vcan1 300#0001
(1591372012.581531) vcan1 60A#01C24D10
(1591372012.582528) vcan1 60B#5F5F2BCC80200193
(1591372012.582529) vcan1 60C#5F8CE33A0220E8
(1591372012.582529) vcan1 60D#5F7D2FA170800A0C
(1591372012.586322) vcan1 301#8000000000000000
(1591372012.587364) vcan1 300#0001
(1591372012.636429) vcan1 301#8001000000000000
(1591372012.637424) vcan1 300#0001
(1591372012.651212) vcan1 60A#01C24F10
(1591372012.652278) vcan1 60B#5F5F2BCC80200193
(1591372012.652279) vcan1 60C#5F8CE33A0220E8
(1591372012.652280) vcan1 60D#5F7D0FA170800A0C
(1591372012.686695) vcan1 301#8000000000000000
(1591372012.687765) vcan1 300#0001
(1591372012.721196) vcan1 60A#01C25110
(1591372012.722218) vcan1 60B#5F5F2BCC80200193
(1591372012.722219) vcan1 60C#5F8CE33A0220E8
(1591372012.722220) vcan1 60D#5F7D2FA170800A0C
(1591372012.736419) vcan1 301#8009000000000000
(1591372012.737430) vcan1 300#0002
(1591372012.786349) vcan1 301#8006000000000000
(1591372012.787414) vcan1 300#0002
(1591372012.796297) vcan1 60A#01C25310
(1591372012.797288) vcan1 60B#5F5F2BCC80200193
(1591372012.797289) vcan1 60C#5F8CE33A0220E8
(1591372012.797290) vcan1 60D#5F7D2FA170800A0C
(1591372012.836519) vcan1 301#8005000000000000
(1591372012.837551) vcan1 300#0001
(1591372012.866292) vcan1 60A#01C25510
(1591372012.867446) vcan1 60B#5F5F2BCC80200193
(1591372012.867447) vcan1 60C#5F8CE33A0220E8
(1591372012.867448) vcan1 60D#5F7D2FA170800A0C
(1591372012.886584) vcan1 301#8004000000000000
(1591372012.887600) vcan1 300#0001
(1591372012.936415) vcan1 301#8006000000000000
(1591372012.937477) vcan1 300#0001
(1591372012.941399) vcan1 60A#01C25710
(1591372012.942253) vcan1 60B#5F5F2BCC80200193
(1591372012.942254) vcan1 60C#5F8CE33A0220E8
(1591372012.942255) vcan1 60D#5F7D2FA170800A0C
(1591372012.986313) vcan1 301#8000000000000000
(1591372012.987458) vcan1 300#0001
(1591372013.011441) vcan1 60A#01C25910
(1591372013.012463) vcan1 60B#5F5F2BCC80200193
(1591372013.012464) vcan1 60C#5F8CE33A0220E8
(1591372013.012465) vcan1 60D#5F7D2FA170800A0C
(1591372013.036547) vcan1 301#8003000000000000
(1591372013.037555) vcan1 300#0001
(1591372013.086568) vcan1 301#8003000000000000
(1591372013.087555) vcan1 300#0001
(1591372013.087556) vcan1 60A#01C25B10
(1591372013.087557) vcan1 60B#5F5F2BCC80200193
(1591372013.087557) vcan1 60C#5F8CE33A0220E8
(1591372013.088665) vcan1 60D#5F7D2FA170800A0C
(1591372013.136480) vcan1 301#8001000000000000
(1591372013.137461) vcan1 300#0001
(1591372013.156191) vcan1 60A#01C25D10
(1591372013.157206) vcan1 60B#5F5F2BCC80200193
(1591372013.157207) vcan1 60C#5F8CE33A0220E8
(1591372013.157218) vcan1 60D#5F7D2FA170800A0C
(1591372013.186267) vcan1 301#8004000000000000
(1591372013.187271) vcan1 300#0001
(1591372013.226421) vcan1 60A#01C25F10
(1591372013.227360) vcan1 60B#5F5F2BCC80200193
(1591372013.227361) vcan1 60C#5F8CE33A0220E8
(1591372013.227361) vcan1 60D#5F7D2FA170800A0C
(1591372013.236400) vcan1 301#8006000000000000
(1591372013.237420) vcan1 300#0001
(1591372013.286875) vcan1 301#8002000000000000
(1591372013.287679) vcan1 300#0001
(1591372013.301338) vcan1 60A#01C26110
(1591372013.302305) vcan1 60B#5F5F2BCC80200193
(1591372013.302306) vcan1 60C#5F8CE33A0220E8
(1591372013.302307) vcan1 60D#5F7D2FA170800A0C
(1591372013.336822) vcan1 301#8003000000000000
(1591372013.337769) vcan1 300#0001
(1591372013.362546) vcan1 201#401F400010340000
(1591372013.363563) vcan1 700#041E0100
(1591372013.371456) vcan1 60A#01C26310
(1591372013.372453) vcan1 60B#5F5F2BCC80200193
(1591372013.372454) vcan1 60C#5F8CE33A0220E8
(1591372013.372454) vcan1 60D#5F7D2FA170800A0C
(1591372013.386698) vcan1 301#7FFF000000000000
(1591372013.387589) vcan1 300#0001
(1591372013.436552) vcan1 301#7FFD000000000000
(1591372013.437566) vcan1 300#0001
(1591372013.446396) vcan1 60A#01C26510
(1591372013.447392) vcan1 60B#5F5F2BCC80200193
(1591372013.447393) vcan1 60C#5F8CE33A0220E8
(1591372013.448455) vcan1 60D#5F7D2FA170800A0C
(1591372013.486462) vcan1 301#8004000000000000
(1591372013.487554) vcan1 300#0001
(1591372013.516264) vcan1 60A#01C26710
(1591372013.517245) vcan1 60B#5F5F2BCC80200193
(1591372013.517245) vcan1 60C#5F8CE53A0220E8
(1591372013.518252) vcan1 60D#5F7D0FA170800A0C
(1591372013.536463) vcan1 301#8007000000000000
(1591372013.537456) vcan1 300#0000
(1591372013.586399) vcan1 301#8006000000000000
(1591372013.587462) vcan1 300#0000
(1591372013.587463) vcan1 60A#01C26910
(1591372013.587464) vcan1 60B#5F5F2BCC80200193
(1591372013.587465) vcan1 60C#5F8CE53A0220E8
(1591372013.588453) vcan1 60D#5F7D0FA170800A0C
(1591372013.636634) vcan1 301#8002000000000000
(1591372013.637613) vcan1 300#0000
(1591372013.661361) vcan1 60A#02C26B10
(1591372013.662336) vcan1 60B#0E584BC680202186
(1591372013.662337) vcan1 60B#5F5F2BCC80200193
(1591372013.662338) vcan1 60C#0EAD717D0220C8
(1591372013.663396) vcan1 60C#5F8CE53A0220E8
(1591372013.663397) vcan1 60D#0E77EFA170800A0C
(1591372013.663398) vcan1 60D#5F7D2FA170800A0C
(1591372013.686548) vcan1 301#8003000000000000
(1591372013.687610) vcan1 300#0000
(1591372013.731280) vcan1 60A#02C26D10
(1591372013.732317) vcan1 60B#0E584BC5801FE187
(1591372013.732317) vcan1 60B#5F5F2BCC80200193
(1591372013.732319) vcan1 60C#0EAD6F7C8220C8
(1591372013.733429) vcan1 60C#5F8CE33A0220E8
(1591372013.733430) vcan1 60D#0E782FA170800A0C
(1591372013.733431) vcan1 60D#5F7D2FA170800A0C
(1591372013.736388) vcan1 301#8003000000000000
(1591372013.737408) vcan1 300#0000
(1591372013.786260) vcan1 301#7FFF000000000000
(1591372013.787296) vcan1 300#0000
(1591372013.801263) vcan1 60A#02C26F10
(1591372013.802276) vcan1 60B#0E584BC780204187
(1591372013.802278) vcan1 60B#5F5F2BCC80200193
(1591372013.803389) vcan1 60C#0EA52D6C0220C8
(1591372013.803390) vcan1 60C#5F8CE33A0220E8
(1591372013.803391) vcan1 60D#0E79EFA170800A0C
(1591372013.803401) vcan1 60D#5F7D2FA170800A0C
(1591372013.836589) vcan1 301#8005000000000000
(1591372013.837586) vcan1 300#0000
(1591372013.877504) vcan1 60A#02C27110
(1591372013.878519) vcan1 60B#0E584BC780206186
(1591372013.878520) vcan1 60B#5F5F2BCC80200193
(1591372013.878521) vcan1 60C#0EA56D6C0220C8
(1591372013.878522) vcan1 60C#5F8CE53A0220E8
(1591372013.879520) vcan1 60D#0E7A6FA170800A0C
(1591372013.879521) vcan1 60D#5F7D0FA170800A0C
(1591372013.886679) vcan1 301#8002000000000000
(1591372013.887584) vcan1 300#0000
(1591372013.936537) vcan1 301#8005000000000000
(1591372013.937426) vcan1 300#0000
(1591372013.947335) vcan1 60A#02C27310
(1591372013.948314) vcan1 60B#0E584BC780204186
(1591372013.948315) vcan1 60B#5F5F2BCC80200194
(1591372013.948316) vcan1 60C#0E9D296B8220E8
(1591372013.948317) vcan1 60C#5F8CE53A0220E8
(1591372013.949340) vcan1 60D#0E78AFA170800A0C
(1591372013.949342) vcan1 60D#5F7CEFA170800A0C
(1591372013.986478) vcan1 301#8005000000000000
(1591372013.987480) vcan1 300#0000
(1591372014.017250) vcan1 60A#02C27510
(1591372014.018268) vcan1 60B#0E5853C880204188
(1591372014.018269) vcan1 60B#5F5F2BCC80200193
(1591372014.018269) vcan1 60C#0E9D276B8220E8
(1591372014.018270) vcan1 60C#5F8CE53A0220E8
(1591372014.019401) vcan1 60D#0E754FA170800A0C
(1591372014.019401) vcan1 60D#5F7D0FA170800A0C
(1591372014.036457) vcan1 301#800A000000000000
(1591372014.037473) vcan1 300#0000
(1591372014.086419) vcan1 301#8004000000000000
(1591372014.087511) vcan1 300#0000
(1591372014.092363) vcan1 60A#02C27710
(1591372014.093362) vcan1 60B#0E5853CB8020C188
(1591372014.093363) vcan1 60B#5F5F2BCC80200193
(1591372014.093363) vcan1 60C#0E9CE55B0220E8
(1591372014.093364) vcan1 60C#5F8CE33A0220E8
(1591372014.094315) vcan1 60D#0E71EFA170800A0C
(1591372014.094316) vcan1 60D#5F7D0FA170800A0C
(1591372014.136698) vcan1 301#800A000000000000
(1591372014.137693) vcan1 300#0000
(1591372014.162379) vcan1 60A#02C27910
(1591372014.163382) vcan1 60B#0E585BCC8020E18A
(1591372014.163383) vcan1 60B#5F5F2BCC80200193
(1591372014.163384) vcan1 60C#0E94E55B0220E8
(1591372014.163385) vcan1 60C#5F8CE33A0220E8
(1591372014.164431) vcan1 60D#0E746FA170800A0C
(1591372014.164432) vcan1 60D#5F7D0FA170800A0C
(1591372014.186733) vcan1 301#7FFE000000000000
(1591372014.187721) vcan1 300#0000
(1591372014.236433) vcan1 301#8002000000000000
(1591372014.237423) vcan1 300#0000
(1591372014.237423) vcan1 60A#02C27B10
(1591372014.237425) vcan1 60B#0E585BCC8020C18B
(1591372014.237425) vcan1 60B#5F5F2BCC80200193
(1591372014.238444) vcan1 60C#0E94E55A8220E8
(1591372014.238445) vcan1 60C#5F8CE33A0220E8
(1591372014.238446) vcan1 60D#0E768FA170800A0C
(1591372014.238447) vcan1 60D#5F7D0FA170800A0C
(1591372014.286581) vcan1 301#8002000000000000
(1591372014.287603) vcan1 300#0000
(1591372014.307317) vcan1 60A#02C27D10
(1591372014.308310) vcan1 60B#0E585BCD8020C18B
(1591372014.308311) vcan1 60B#5F5F2BCC80200193
(1591372014.308312) vcan1 60C#0E94E35A8220E8
(1591372014.308312) vcan1 60C#5F8CE53A0220E8
(1591372014.309340) vcan1 60D#0E776FA170800A0C
(1591372014.309340) vcan1 60D#5F7D2FA170800A0C
(1591372014.336824) vcan1 301#7FFE000000000000
(1591372014.337852) vcan1 300#0000
(1591372014.362554) vcan1 201#401F400010340000
(1591372014.363600) vcan1 700#041E0100
(1591372014.377473) vcan1 60A#02C27F10
(1591372014.378496) vcan1 60B#0E585BCD8020A18B
(1591372014.378497) vcan1 60B#5F5F2BCC80200193
(1591372014.378498) vcan1 60C#0E94E34A8220E8
(1591372014.378499) vcan1 60C#5F8CE33A0220E8
(1591372014.379481) vcan1 60D#0E794FA170800A0C
(1591372014.379482) vcan1 60D#5F7D2FA170800A0C
(1591372014.386493) vcan1 301#8001000000000000
(1591372014.387486) vcan1 300#0000
(1591372014.436690) vcan1 301#8003000000000000
(1591372014.437665) vcan1 300#0000
(1591372014.452426) vcan1 60A#02C28110
(1591372014.453437) vcan1 60B#0E585BCD8020C18A
(1591372014.453438) vcan1 60B#5F5F2BCC80200193
(1591372014.453439) vcan1 60C#0E94E34A8220E8
(1591372014.453440) vcan1 60C#5F8CE33A0220E8
(1591372014.454464) vcan1 60D#0E7A0FA170800A0C
(1591372014.454465) vcan1 60D#5F7D2FA170800A0C
(1591372014.486479) vcan1 301#8005000000000000
(1591372014.487538) vcan1 300#0000
(1591372014.522478) vcan1 60A#02C28310
(1591372014.523483) vcan1 60B#0E585BCE8020C189
(1591372014.523484) vcan1 60B#5F5F2BCC80200193
(1591372014.523484) vcan1 60C#0E94E54A8220E8
(1591372014.523485) vcan1 60C#5F8CE33A0220E8
(1591372014.524524) vcan1 60D#0E7A6FA170800A0C
(1591372014.524525) vcan1 60D#5F7D4FA170800A0C
(1591372014.536487) vcan1 301#8003000000000000
(1591372014.537480) vcan1 300#0000
(1591372014.586353) vcan1 301#8007000000000000
(1591372014.587355) vcan1 300#0000
(1591372014.597335) vcan1 60A#03C28510
(1591372014.598339) vcan1 60B#095414098020018B
(1591372014.598339) vcan1 60B#0E585BCD8020A18C
(1591372014.598340) vcan1 60B#5F5F2BCC80200193
(1591372014.598340) vcan1 60C#098CA53A0220E8
(1591372014.599379) vcan1 60C#0E8CE54A0220E8
(1591372014.599380) vcan1 60C#5F8CE33A0220E8
(1591372014.599380) vcan1 60D#097D8FA170800A0C
(1591372014.599381) vcan1 60D#0E7B2FA170800A0C
(1591372014.599381) vcan1 60D#5F7D2FA170800A0C
(1591372014.636642) vcan1 301#8001000000000000
(1591372014.637644) vcan1 300#0000
(1591372014.667568) vcan1 60A#03C28710
(1591372014.668355) vcan1 60B#095414098020018A
(1591372014.668356) vcan1 60B#0E585BCD8020618B
(1591372014.668357) vcan1 60B#5F5F2BCC80200193
(1591372014.668358) vcan1 60C#098CA53A0220E8
(1591372014.669384) vcan1 60C#0E8CE34A0220E8
(1591372014.669385) vcan1 60C#5F8CE53A0220E8
(1591372014.669385) vcan1 60D#097D4FA170800A0C
(1591372014.669386) vcan1 60D#0E7B8FA170800A0C
(1591372014.670371) vcan1 60D#5F7D2FA170800A0C
(1591372014.686328) vcan1 301#8003000000000000
(1591372014.687373) vcan1 300#0000
(1591372014.736393) vcan1 301#8002000000000000
(1591372014.737261) vcan1 300#0000
(1591372014.737263) vcan1 60A#03C28910
(1591372014.737264) vcan1 60B#0954140A8020218A
(1591372014.737265) vcan1 60B#0E585BCD8020618A
(1591372014.738264) vcan1 60B#5F5F2BCC80200193
(1591372014.738265) vcan1 60C#098CA53A0220E8
(1591372014.738265) vcan1 60C#0E8CE34A0220E8
(1591372014.738266) vcan1 60C#5F8CE53A0220E8
(1591372014.739334) vcan1 60D#097D0FA170800A0C
(1591372014.739335) vcan1 60D#0E7BCFA170800A0C
(1591372014.739336) vcan1 60D#5F7D4FA170800A0C
(1591372014.786634) vcan1 301#8005000000000000
(1591372014.787628) vcan1 300#0000
(1591372014.812400) vcan1 60A#03C28B10
(1591372014.813419) vcan1 60B#0954140A8020218A
(1591372014.813420) vcan1 60B#0E585BCD80204188
(1591372014.813432) vcan1 60B#5F5F2BCC80200192
(1591372014.813433) vcan1 60C#098CA33A0220E8
(1591372014.814389) vcan1 60C#0E8CE54A0220C8
(1591372014.814390) vcan1 60C#5F8CE53A0220E8
(1591372014.814391) vcan1 60D#097CEFA170800A0C
(1591372014.814391) vcan1 60D#0E7C0FA170800A0C
(1591372014.815444) vcan1 60D#5F7D2FA170800A0C
(1591372014.836579) vcan1 301#8007000000000000
(1591372014.837610) vcan1 300#0000
(1591372014.882699) vcan1 60A#03C28D10
(1591372014.883749) vcan1 60B#0954140A8020218A
(1591372014.883749) vcan1 60B#0E585BCD8020418A
(1591372014.883750) vcan1 60B#5F5F2BCC80200192
(1591372014.883750) vcan1 60C#098CA33A0220E8
(1591372014.884721) vcan1 60C#0E8CE54A0220E8
(1591372014.884722) vcan1 60C#5F8CE53A0220E8
(1591372014.884722) vcan1 60D#097CCFA170800A0C
(1591372014.884723) vcan1 60D#0E7C6FA170800A0C
(1591372014.885758) vcan1 60D#5F7CEFA170800A0C
(1591372014.886805) vcan1 301#800A000000000000
(1591372014.886806) vcan1 300#0000
(1591372014.936700) vcan1 301#8006000000000000
(1591372014.937702) vcan1 300#0000
(1591372014.957449) vcan1 60A#03C28F10
(1591372014.958459) vcan1 60B#0954140A8020218B
(1591372014.958460) vcan1 60B#0E585BCD80204188
(1591372014.958461) vcan1 60B#5F5F2BCC80200193
(1591372014.958461) vcan1 60C#098CA33A0220E8
(1591372014.959503) vcan1 60C#0E8CE54A0220E8
(1591372014.959504) vcan1 60C#5F8CE53A0220E8
(1591372014.959505) vcan1 60D#097CEFA170800A0C
(1591372014.959506) vcan1 60D#0E7CCFA170800A0C
(1591372014.960499) vcan1 60D#5F7C6FA170800A0C
(1591372014.986382) vcan1 301#8006000000000000
(1591372014.987504) vcan1 300#0000
(1591372015.027589) vcan1 60A#03C29110
(1591372015.028606) vcan1 60B#0954140B8020418B
(1591372015.028608) vcan1 60B#0E5863CD80204189
(1591372015.028609) vcan1 60B#5F5F2BCC80200193
(1591372015.028609) vcan1 60C#098CA33A0220E8
(1591372015.029607) vcan1 60C#0E8CE54A0220E8
(1591372015.029608) vcan1 60C#5F8CE33A0220E8
(1591372015.029610) vcan1 60D#097D0FA170800A0C
(1591372015.029611) vcan1 60D#0E7CEFA170800A0C
(1591372015.030626) vcan1 60D#5F7C2FA170800A0C
(1591372015.036470) vcan1 301#7FFF000000000000
(1591372015.037510) vcan1 300#0000
(1591372015.086538) vcan1 301#7FFC000000000000
(1591372015.087480) vcan1 300#0000
(1591372015.097366) vcan1 60A#03C29310
(1591372015.098350) vcan1 60B#0954140A8020218B
(1591372015.098352) vcan1 60B#0E5863CD80204188
(1591372015.098353) vcan1 60B#5F5F2BCC80200193
(1591372015.098354) vcan1 60C#098CA33A0220E8
(1591372015.099452) vcan1 60C#0E8CE54A0220E8
(1591372015.099453) vcan1 60C#5F8CE33A0220E8
(1591372015.099454) vcan1 60D#097D0FA170800A0C
(1591372015.099455) vcan1 60D#0E7D0FA170800A0C
(1591372015.100469) vcan1 60D#5F7C2FA170800A0C
(1591372015.136768) vcan1 301#8001000000000000
(1591372015.137783) vcan1 300#0000
(1591372015.172494) vcan1 60A#03C29510
(1591372015.173401) vcan1 60B#095414098020018A
(1591372015.173402) vcan1 60B#0E5863CC80202189
(1591372015.173403) vcan1 60B#5F5F2BCC80200193
(1591372015.173404) vcan1 60C#098CA53A0220E8
(1591372015.174492) vcan1 60C#0E8CE33A0220E8
(1591372015.174493) vcan1 60C#5F8CE33A0220E8
(1591372015.174494) vcan1 60D#097D0FA170800A0C
(1591372015.174495) vcan1 60D#0E7CAFA170800A0C
(1591372015.175443) vcan1 60D#5F7C4FA170800A0C
(1591372015.186398) vcan1 301#8007000000000000
(1591372015.187421) vcan1 300#0000
(1591372015.236345) vcan1 301#800A000000000000
(1591372015.237359) vcan1 300#0000
(1591372015.242270) vcan1 60A#03C29710
(1591372015.243336) vcan1 60B#0954140980200186
(1591372015.243337) vcan1 60B#0E5863CD80202189
(1591372015.243338) vcan1 60B#5F5F2BCC80200193
(1591372015.243340) vcan1 60C#098CA53A0220E8
(1591372015.244310) vcan1 60C#0E8CE33A0220E8
(1591372015.244311) vcan1 60C#5F8CE33A0220E8
(1591372015.244312) vcan1 60D#097D2FA170800A0C
(1591372015.244314) vcan1 60D#0E7C8FA170800A0C
(1591372015.245413) vcan1 60D#5F7C4FA170800A0C
(1591372015.286357) vcan1 301#8006000000000000
(1591372015.287455) vcan1 300#0000
(1591372015.317207) vcan1 60A#03C29910
(1591372015.318259) vcan1 60B#0954140A80200187
(1591372015.318260) vcan1 60B#0E5863CD80202189
(1591372015.318261) vcan1 60B#5F5F2BCC80200192
(1591372015.318262) vcan1 60C#098CA33A0220E8
(1591372015.319382) vcan1 60C#0E8CA33A0220E8
(1591372015.319383) vcan1 60C#5F8CE33A0220E8
(1591372015.319384) vcan1 60D#097D0FA170800A0C
(1591372015.319385) vcan1 60D#0E7C8FA170800A0C
(1591372015.320287) vcan1 60D#5F7C6FA170800A0C
(1591372015.336612) vcan1 301#8004000000000000
(1591372015.337558) vcan1 300#0000
(1591372015.362575) vcan1 201#401F400010340000
(1591372015.363590) vcan1 700#041E0100
(1591372015.386869) vcan1 301#8000000000000000
(1591372015.387776) vcan1 300#0000
(1591372015.387778) vcan1 60A#03C29B10
(1591372015.387778) vcan1 60B#0954140B80202187
(1591372015.387779) vcan1 60B#0E5863CD80202188
(1591372015.388786) vcan1 60B#5F5F2BCC80200193
(1591372015.388788) vcan1 60C#098CA33A0220E8
(1591372015.388788) vcan1 60C#0E8CA33A0220E8
(1591372015.388789) vcan1 60C#5F8CE33A0220E8
(1591372015.388790) vcan1 60D#097D0FA170800A0C
(1591372015.389799) vcan1 60D#0E7C8FA170800A0C
(1591372015.389800) vcan1 60D#5F7CAFA170800A0C
(1591372015.436608) vcan1 301#7FFD000000000000
(1591372015.437624) vcan1 300#0000
(1591372015.462493) vcan1 60A#03C29D10
(1591372015.463506) vcan1 60B#0954140B80204187
(1591372015.463507) vcan1 60B#0E5863CD80202189
(1591372015.463507) vcan1 60B#5F5F2BCC80200193
(1591372015.463508) vcan1 60C#098CA33A0220E8
(1591372015.464530) vcan1 60C#0E8CA33A0220E8
(1591372015.464530) vcan1 60C#5F8CE33A0220E8
(1591372015.464531) vcan1 60D#097D2FA170800A0C
(1591372015.464531) vcan1 60D#0E7C6FA170800A0C
(1591372015.465526) vcan1 60D#5F7CCFA170800A0C
(1591372015.486488) vcan1 301#800A000000000000
(1591372015.487554) vcan1 300#0000
(1591372015.532607) vcan1 60A#03C29F10
(1591372015.533534) vcan1 60B#0954140C80204187
(1591372015.533535) vcan1 60B#0E5863CD8020218A
(1591372015.533536) vcan1 60B#5F5F2BCC80200193
(1591372015.533537) vcan1 60C#098CA33A0220E8
(1591372015.534486) vcan1 60C#0E8CA33A0220E8
(1591372015.534487) vcan1 60C#5F8CA33A0220E8
(1591372015.534488) vcan1 60D#097D4FA170800A0C
(1591372015.534489) vcan1 60D#0E7C6FA170800A0C
(1591372015.535476) vcan1 60D#5F7CEFA170800A0C
(1591372015.536554) vcan1 301#8007000000000000
(1591372015.537577) vcan1 300#0000
(1591372015.586506) vcan1 301#8002000000000000
(1591372015.587488) vcan1 300#0000
(1591372015.602345) vcan1 60A#03C2A110
(1591372015.603364) vcan1 60B#0954140C80204189
(1591372015.603366) vcan1 60B#0E5863CC80202189
(1591372015.603367) vcan1 60B#5F5F2BCC80200193
(1591372015.603367) vcan1 60C#098CA33A0220E8
(1591372015.604384) vcan1 60C#0E8CA33A0220E8
(1591372015.604386) vcan1 60C#5F8CA33A0220E8
(1591372015.604387) vcan1 60D#097D4FA170800A0C
(1591372015.604388) vcan1 60D#0E7C6FA170800A0C
(1591372015.604390) vcan1 60D#5F7D0FA170800A0C
(1591372015.636621) vcan1 301#8003000000000000
(1591372015.637647) vcan1 300#0000
(1591372015.677407) vcan1 60A#03C2A310
(1591372015.678468) vcan1 60B#0954140D80204188
(1591372015.678469) vcan1 60B#0E5863CC80200189
(1591372015.678469) vcan1 60B#5F5F2BCC80200193
(1591372015.678470) vcan1 60C#098CA33A0220E8
(1591372015.679460) vcan1 60C#0E8CA33A0220E8
(1591372015.679461) vcan1 60C#5F8CA33A0220E8
(1591372015.679462) vcan1 60D#097D4FA170800A0C
(1591372015.679463) vcan1 60D#0E7C8FA170800A0C
(1591372015.680493) vcan1 60D#5F7D0FA170800A0C
(1591372015.686678) vcan1 301#8002000000000000
(1591372015.687588) vcan1 300#0000
(1591372015.736481) vcan1 301#8001000000000000
(1591372015.737509) vcan1 300#0000
(1591372015.747438) vcan1 60A#03C2A510
(1591372015.748316) vcan1 60B#0954140D80204188
(1591372015.748317) vcan1 60B#0E5863CC80200189
(1591372015.748317) vcan1 60B#5F5F2BCC80200193
(1591372015.748318) vcan1 60C#098CA53A0220CC
(1591372015.749332) vcan1 60C#0E8CA33A0220E8
(1591372015.749333) vcan1 60C#5F8CA33A0220E8
(1591372015.749334) vcan1 60D#097D4FA170800A0C
(1591372015.749335) vcan1 60D#0E7C8FA170800A0C
(1591372015.750278) vcan1 60D#5F7D2FA170800A0C
(1591372015.786483) vcan1 301#8008000000000000
(1591372015.787521) vcan1 300#0000
(1591372015.822469) vcan1 60A#03C2A710
(1591372015.823545) vcan1 60B#0954140D80204188
(1591372015.823546) vcan1 60B#0E5863CC80200189
(1591372015.823547) vcan1 60B#5F5F2BCC80200193
(1591372015.824495) vcan1 60C#098CA53A8220CC
(1591372015.824497) vcan1 60C#0E8CA33A0220E8
(1591372015.824498) vcan1 60C#5F8CA33A0220E8
(1591372015.824499) vcan1 60D#097D4FA170800A0C
(1591372015.824499) vcan1 60D#0E7CAFA170800A0C
(1591372015.825515) vcan1 60D#5F7D4FA170800A0C
(1591372015.836413) vcan1 301#8004000000000000
(1591372015.837426) vcan1 300#0000
(1591372015.886625) vcan1 301#8007000000000000
(1591372015.887509) vcan1 300#0000
(1591372015.892482) vcan1 60A#03C2A910
(1591372015.893580) vcan1 60B#0954140D80204187
(1591372015.893581) vcan1 60B#0E5863CC8020018A
(1591372015.893581) vcan1 60B#5F5F2BCC80200193
(1591372015.893583) vcan1 60C#098CA53A0220E8
(1591372015.894535) vcan1 60C#0E8CA33A0220E8
(1591372015.894536) vcan1 60C#5F8CA33A0220E8
(1591372015.894536) vcan1 60D#097D0FA170800A0C
(1591372015.894537) vcan1 60D#0E7CEFA170800A0C
(1591372015.895549) vcan1 60D#5F7D4FA170800A0C
(1591372015.936600) vcan1 301#8000000000000000
(1591372015.937591) vcan1 300#0000
(1591372015.962435) vcan1 60A#03C2AB10
(1591372015.963433) vcan1 60B#0954140D80204188
(1591372015.963434) vcan1 60B#0E5863CC80200188
(1591372015.963435) vcan1 60B#5F5F2BCC80200193
(1591372015.963436) vcan1 60C#098CA53A0220E8
(1591372015.964454) vcan1 60C#0E8CA33A0220E8
(1591372015.964455) vcan1 60C#5F8CA33A0220E8
(1591372015.964456) vcan1 60D#097D0FA170800A0C
(1591372015.964457) vcan1 60D#0E7CEFA170800A0C
(1591372015.965469) vcan1 60D#5F7D4FA170800A0C
(1591372015.986469) vcan1 301#7FFE000000000000
(1591372015.987486) vcan1 300#0000
(1591372016.036830) vcan1 301#8005000000000000
(1591372016.037828) vcan1 300#0000
(1591372016.037840) vcan1 60A#03C2AD10
(1591372016.037841) vcan1 60B#0954140C80202189
(1591372016.038846) vcan1 60B#0E5863CC80200188
(1591372016.038847) vcan1 60B#5F5F2BCC80200193
(1591372016.038848) vcan1 60C#098CA33A0220E8
(1591372016.038849) vcan1 60C#0E8CA33A0220E8
(1591372016.038849) vcan1 60C#5F8CA33A0220E8
(1591372016.039871) vcan1 60D#097CEFA170800A0C
(1591372016.039872) vcan1 60D#0E7D2FA170800A0C
(1591372016.039873) vcan1 60D#5F7D2FA170800A0C
(1591372016.086751) vcan1 301#8000000000000000
(1591372016.087678) vcan1 300#0000
(1591372016.107472) vcan1 60A#04C2AF10
(1591372016.108596) vcan1 60B#2B53CBDD801FA184
(1591372016.108597) vcan1 60B#0954140B8020018A
(1591372016.108598) vcan1 60B#0E5863CC80200188
(1591372016.108599) vcan1 60B#5F5F2BCC80200193
(1591372016.109586) vcan1 60C#2B9CE58C8220A8
(1591372016.109587) vcan1 60C#098CA53A0220E8
(1591372016.109588) vcan1 60C#0E8CA33A0220E8
(1591372016.109589) vcan1 60C#5F8CA33A0220E8
(1591372016.110666) vcan1 60D#2B7C2FA170800A0C
(1591372016.110666) vcan1 60D#097CCFA170800A0C
(1591372016.110667) vcan1 60D#0E7D6FA170800A0C
(1591372016.110668) vcan1 60D#5F7D2FA170800A0C
(1591372016.136561) vcan1 301#800B000000000000
(1591372016.137534) vcan1 300#0000
(1591372016.182732) vcan1 60A#04C2B110
(1591372016.183739) vcan1 60B#2B53CBE080214183
(1591372016.183740) vcan1 60B#0954140B8020018C
(1591372016.183742) vcan1 60B#0E5863CC80200189
(1591372016.184854) vcan1 60B#5F5F2BCC80200193
(1591372016.184854) vcan1 60C#2B9CE77C0220C8
(1591372016.184855) vcan1 60C#098CA53A0220E8
(1591372016.184856) vcan1 60C#0E8CA33A0220E8
(1591372016.184857) vcan1 60C#5F8CA33A0220E8
(1591372016.185769) vcan1 60D#2B7D0FA170800A0C
(1591372016.185769) vcan1 60D#097CCFA170800A0C
(1591372016.185770) vcan1 60D#0E7D4FA170800A0C
(1591372016.185771) vcan1 60D#5F7D2FA170800A0C
(1591372016.186743) vcan1 301#7FFE000000000000
(1591372016.186744) vcan1 300#0000
(1591372016.236428) vcan1 301#8000000000000000
(1591372016.237469) vcan1 300#0000
(1591372016.252331) vcan1 60A#03C2B310
(1591372016.253436) vcan1 60B#0954140C8020018D
(1591372016.253438) vcan1 60B#0E5863CC8020018A
(1591372016.253439) vcan1 60B#5F5F2BCC80200193
(1591372016.253439) vcan1 60C#098CA33A0220E8
(1591372016.254334) vcan1 60C#0E8CA33A0220E8
(1591372016.254336) vcan1 60C#5F8CA33A0220E8
(1591372016.254337) vcan1 60D#097CCFA170800A0C
(1591372016.254337) vcan1 60D#0E7D4FA170800A0C
(1591372016.255338) vcan1 60D#5F7D2FA170800A0C
(1591372016.286392) vcan1 301#8002000000000000
(1591372016.287438) vcan1 300#0000
(1591372016.322292) vcan1 60A#03C2B510
(1591372016.323451) vcan1 60B#0954140B8020018E
(1591372016.323452) vcan1 60B#0E5863CB801FE18A
(1591372016.324465) vcan1 60B#5F5F2BCC80200193
(1591372016.324466) vcan1 60C#098CA33A0220E8
(1591372016.324466) vcan1 60C#0E8CA33A0220E8
(1591372016.324467) vcan1 60C#5F8CA33A0220E8
(1591372016.325478) vcan1 60D#097CCFA170800A0C
(1591372016.325479) vcan1 60D#0E7D6FA170800A0C
(1591372016.325479) vcan1 60D#5F7D4FA170800A0C
(1591372016.336477) vcan1 301#8001000000000000
(1591372016.337471) vcan1 300#0000
(1591372016.362523) vcan1 201#401F400010340000
(1591372016.363530) vcan1 700#041E0100
(1591372016.386949) vcan1 301#8004000000000000
(1591372016.387888) vcan1 300#0000
(1591372016.397400) vcan1 60A#03C2B710
(1591372016.398349) vcan1 60B#0954140B8020018E
(1591372016.398350) vcan1 60B#0E585BCA801FE18C
(1591372016.398351) vcan1 60B#5F5F2BCC80200193
(1591372016.398351) vcan1 60C#098CA33A0220E8
(1591372016.399364) vcan1 60C#0E8CA33A0220E8
(1591372016.399365) vcan1 60C#5F8CA33A0220E8
(1591372016.399365) vcan1 60D#097CAFA170800A0C
(1591372016.399366) vcan1 60D#0E7D8FA170800A0C
(1591372016.400389) vcan1 60D#5F7D4FA170800A0C
(1591372016.436621) vcan1 301#8006000000000000
(1591372016.437676) vcan1 300#0000
(1591372016.467319) vcan1 60A#03C2B910
(1591372016.468342) vcan1 60B#0954140B8020018E
(1591372016.468343) vcan1 60B#0E585BCA801FE18B
(1591372016.468345) vcan1 60B#5F5F2BCC80200193
(1591372016.468346) vcan1 60C#098CA33A0220E8
(1591372016.469349) vcan1 60C#0E8CA33A0220E8
(1591372016.469350) vcan1 60C#5F8CA33A0220E8
(1591372016.469351) vcan1 60D#097C8FA170800A0C
(1591372016.469352) vcan1 60D#0E7DAFA170800A0C
(1591372016.470395) vcan1 60D#5F7D2FA170800A0C
(1591372016.486416) vcan1 301#8004000000000000
(1591372016.487448) vcan1 300#0000
(1591372016.536554) vcan1 301#8003000000000000
(1591372016.537562) vcan1 300#0000
(1591372016.542364) vcan1 60A#03C2BB10
(1591372016.543502) vcan1 60B#0954140A801FE18E
(1591372016.543503) vcan1 60B#0E5863CA801FE189
(1591372016.543504) vcan1 60B#5F5F2BCC80200193
(1591372016.543505) vcan1 60C#098CA33A0220E8
(1591372016.544389) vcan1 60C#0E8CA33A0220E8
(1591372016.544390) vcan1 60C#5F84A33A0220E8
(1591372016.544390) vcan1 60D#097C8FA170800A0C
(1591372016.544392) vcan1 60D#0E7DCFA170800A0C
(1591372016.545391) vcan1 60D#5F7D2FA170800A0C
(1591372016.586597) vcan1 301#8005000000000000
(1591372016.587571) vcan1 300#0000
(1591372016.612412) vcan1 60A#03C2BD10
(1591372016.613386) vcan1 60B#0954140B8020018E
(1591372016.613387) vcan1 60B#0E5863CB80200188
(1591372016.613388) vcan1 60B#5F5F2BCC80200193
(1591372016.614462) vcan1 60C#098CA53A0220E8
(1591372016.614463) vcan1 60C#0E8CA33A0220E8
(1591372016.614464) vcan1 60C#5F84A33A0220E8
(1591372016.614465) vcan1 60D#097C8FA170800A0C
(1591372016.615474) vcan1 60D#0E7DAFA170800A0C
(1591372016.615475) vcan1 60D#5F7D2FA170800A0C
(1591372016.636518) vcan1 301#8008000000000000
(1591372016.637504) vcan1 300#0000
(1591372016.686707) vcan1 301#8006000000000000
(1591372016.687680) vcan1 300#0000
(1591372016.687681) vcan1 60A#03C2BF10
(1591372016.687682) vcan1 60B#0954140B8020018E
(1591372016.688855) vcan1 60B#0E5863CC80200188
(1591372016.688856) vcan1 60B#5F5F2BCC80200193
(1591372016.688857) vcan1 60C#098CA53A8220CC
(1591372016.688860) vcan1 60C#0E8CA33A0220E8
(1591372016.689756) vcan1 60C#5F84A33A0220E8
(1591372016.689757) vcan1 60D#097C8FA170800A0C
(1591372016.689757) vcan1 60D#0E7D8FA170800A0C
(1591372016.689758) vcan1 60D#5F7D2FA170800A0C
(1591372016.736756) vcan1 301#8004000000000000
(1591372016.737598) vcan1 300#0000
(1591372016.757553) vcan1 60A#03C2C110
(1591372016.758567) vcan1 60B#0954140B80200188
(1591372016.758567) vcan1 60B#0E5863CC80202189
(1591372016.759558) vcan1 60B#5F5F2BCD80200193
(1591372016.759559) vcan1 60C#098CA53A8220C8
(1591372016.759559) vcan1 60C#0E8CA33A0220E8
(1591372016.759560) vcan1 60C#5F84A33A0220E8
(1591372016.759561) vcan1 60D#097CCFA170800A0C
(1591372016.760542) vcan1 60D#0E7D0FA170800A0C
(1591372016.760543) vcan1 60D#5F7D2FA170800A0C
(1591372016.786414) vcan1 301#8004000000000000
(1591372016.787421) vcan1 300#0000
(1591372016.827610) vcan1 60A#03C2C310
(1591372016.828648) vcan1 60B#09541C0A80200186
(1591372016.828650) vcan1 60B#0E5863CC8020018B
(1591372016.829647) vcan1 60B#5F5F2BCD80200192
(1591372016.829648) vcan1 60C#098CA53A0220E8
(1591372016.829649) vcan1 60C#0E8CA33A0220E8
(1591372016.829649) vcan1 60C#5F84A33A0220E8
(1591372016.829650) vcan1 60D#097CEFA170800A0C
(1591372016.830658) vcan1 60D#0E7CAFA170800A0C
(1591372016.830659) vcan1 60D#5F7D4FA170800A0C
(1591372016.836628) vcan1 301#8003000000000000
(1591372016.837647) vcan1 300#0000
(1591372016.886495) vcan1 301#8006000000000000
(1591372016.887512) vcan1 300#0000
(1591372016.902843) vcan1 60A#03C2C510
(1591372016.903752) vcan1 60B#09541C0C80202186
(1591372016.903753) vcan1 60B#0E5863CC8020018C
(1591372016.903754) vcan1 60B#5F5F2BCD80200193
(1591372016.904846) vcan1 60C#098CA53A0220E8
(1591372016.904847) vcan1 60C#0E8CA33A0220E8
(1591372016.904847) vcan1 60C#5F84A33A0220E8
(1591372016.904848) vcan1 60D#097C6FA170800A0C
(1591372016.905772) vcan1 60D#0E7C8FA170800A0C
(1591372016.905773) vcan1 60D#5F7D4FA170800A0C
(1591372016.936649) vcan1 301#8003000000000000
(1591372016.937607) vcan1 300#0000
(1591372016.972564) vcan1 60A#03C2C710
(1591372016.973464) vcan1 60B#09541C0C80202185
(1591372016.973465) vcan1 60B#0E5863CC8020218C
(1591372016.973466) vcan1 60B#5F5F2BCC80200193
(1591372016.973466) vcan1 60C#098CA53A0220E8
(1591372016.974439) vcan1 60C#0E8CA33A0220E8
(1591372016.974440) vcan1 60C#5F84A33A0220E8
(1591372016.974440) vcan1 60D#097C2FA170800A0C
(1591372016.974441) vcan1 60D#0E7C8FA170800A0C
(1591372016.975479) vcan1 60D#5F7D2FA170800A0C
(1591372016.986389) vcan1 301#8005000000000000
(1591372016.987410) vcan1 300#0000
(1591372017.036746) vcan1 301#8005000000000000
(1591372017.037476) vcan1 300#0000
(1591372017.042278) vcan1 60A#03C2C910
(1591372017.043322) vcan1 60B#09541C0C80202186
(1591372017.043323) vcan1 60B#0E5863CC8020218B
(1591372017.044331) vcan1 60B#5F5F2BCC80200193
(1591372017.044332) vcan1 60C#098CA33A0220E8
(1591372017.044333) vcan1 60C#0E8CA33A0220E8
(1591372017.044334) vcan1 60C#5F84A33A0220E8
(1591372017.044335) vcan1 60D#097C0FA170800A0C
(1591372017.045449) vcan1 60D#0E7C6FA170800A0C
(1591372017.045450) vcan1 60D#5F7D4FA170800A0C
(1591372017.086466) vcan1 301#8004000000000000
(1591372017.087475) vcan1 300#0000
(1591372017.117513) vcan1 60A#03C2CB10
(1591372017.118445) vcan1 60B#09541C0C80202184
(1591372017.118446) vcan1 60B#0E5863CC8020218B
(1591372017.118447) vcan1 60B#5F5F2BCC80200193
(1591372017.119476) vcan1 60C#098CA33A0220C8
(1591372017.119477) vcan1 60C#0E8CA33A0220E8
(1591372017.119478) vcan1 60C#5F84A33A0220E8
(1591372017.119478) vcan1 60D#097C0FA170800A0C
(1591372017.120504) vcan1 60D#0E7C2FA170800A0C
(1591372017.120505) vcan1 60D#5F7D2FA170800A0C
(1591372017.136606) vcan1 301#7FFF000000000000
(1591372017.137584) vcan1 300#0000
(1591372017.186476) vcan1 301#8004000000000000
(1591372017.187479) vcan1 300#0000
(1591372017.187479) vcan1 60A#03C2CD10
(1591372017.188597) vcan1 60B#09541C0C80202183
(1591372017.188598) vcan1 60B#0E5863CC80202189
(1591372017.188599) vcan1 60B#5F5F2BCC80200193
(1591372017.189517) vcan1 60C#098CA53A0220C8
(1591372017.189528) vcan1 60C#0E8CA33A0220E8
(1591372017.189529) vcan1 60C#5F84A33A0220E8
(1591372017.189529) vcan1 60D#097BEFA170800A0C
(1591372017.190444) vcan1 60D#0E7C2FA170800A0C
(1591372017.190444) vcan1 60D#5F7D2FA170800A0C
(1591372017.236400) vcan1 301#8002000000000000
(1591372017.237468) vcan1 300#0000
(1591372017.262679) vcan1 60A#03C2CF10
(1591372017.263585) vcan1 60B#09541C0C80200183
(1591372017.263586) vcan1 60B#0E5863CC80200189
(1591372017.264545) vcan1 60B#5F5F2BCC80200193
(1591372017.264546) vcan1 60C#098CA53A0220E8
(1591372017.264547) vcan1 60C#0E8CA33A0220E8
(1591372017.264547) vcan1 60C#5F84A33A0220E8
(1591372017.264548) vcan1 60D#097C0FA170800A0C
(1591372017.265564) vcan1 60D#0E7C4FA170800A0C
(1591372017.265565) vcan1 60D#5F7D2FA170800A0C
(1591372017.286372) vcan1 301#8004000000000000
(1591372017.287405) vcan1 300#0000
(1591372017.332772) vcan1 60A#03C2D110
(1591372017.333820) vcan1 60B#09541C0D80202184
(1591372017.333821) vcan1 60B#0E5863CC80200188
(1591372017.334841) vcan1 60B#5F5F2BCC80200193
(1591372017.334842) vcan1 60C#098CA33A0220E8
(1591372017.334842) vcan1 60C#0E8CA53A0220E8
(1591372017.334843) vcan1 60C#5F84A33A0220E8
(1591372017.334844) vcan1 60D#097BEFA170800A0C
(1591372017.335858) vcan1 60D#0E7C8FA170800A0C
(1591372017.335859) vcan1 60D#5F7D2FA170800A0C
(1591372017.336879) vcan1 301#8001000000000000
(1591372017.336880) vcan1 300#0000
(1591372017.363549) vcan1 201#401F400010340000
(1591372017.364562) vcan1 700#041E0100
(1591372017.386712) vcan1 301#8002000000000000
(1591372017.387630) vcan1 300#0000
(1591372017.402677) vcan1 60A#03C2D310
(1591372017.403633) vcan1 60B#09541C0D80202182
(1591372017.403634) vcan1 60B#0E5863CC8020218A
(1591372017.403634) vcan1 60B#5F5F2BCC80200193
(1591372017.404716) vcan1 60C#098CA53A0220E8
(1591372017.404716) vcan1 60C#0E8CA33A0220E8
(1591372017.404716) vcan1 60C#5F84A33A0220E8
(1591372017.404717) vcan1 60D#097BAFA170800A0C
(1591372017.405642) vcan1 60D#0E7CCFA170800A0C
(1591372017.405643) vcan1 60D#5F7D2FA170800A0C
(1591372017.436451) vcan1 301#8002000000000000
(1591372017.437461) vcan1 300#0000
(1591372017.478609) vcan1 60A#03C2D510
(1591372017.479606) vcan1 60B#0954240C80202182
(1591372017.479607) vcan1 60B#0E5863CC80200189
(1591372017.479608) vcan1 60B#5F5F23CC80200193
(1591372017.479608) vcan1 60C#098CA53A0220E8
(1591372017.480685) vcan1 60C#0E8CA33A0220E8
(1591372017.480685) vcan1 60C#5F84A33A0220E8
(1591372017.480686) vcan1 60D#097BAFA170800A0C
(1591372017.480686) vcan1 60D#0E7D2FA170800A0C
(1591372017.481646) vcan1 60D#5F7D2FA170800A0C
(1591372017.486624) vcan1 301#8002000000000000
(1591372017.487498) vcan1 300#0000
(1591372017.536459) vcan1 301#8000000000000000
(1591372017.537367) vcan1 300#0000
(1591372017.548405) vcan1 60A#02C2D710
(1591372017.549456) vcan1 60B#0E5863CD80202187
(1591372017.549457) vcan1 60B#5F5F23CC80200193
(1591372017.549458) vcan1 60C#0E8CA33A0220E8
(1591372017.549458) vcan1 60C#5F84A33A0220E8
(1591372017.550351) vcan1 60D#0E7D0FA170800A0C
(1591372017.550352) vcan1 60D#5F7D4FA170800A0C
(1591372017.586570) vcan1 301#8006000000000000
(1591372017.587579) vcan1 300#0000
(1591372017.623598) vcan1 60A#03C2D910
(1591372017.624533) vcan1 60B#0553FC04801EA185
(1591372017.624534) vcan1 60B#22584BC680208185
(1591372017.624546) vcan1 60B#5F5F23CC80200193
(1591372017.624547) vcan1 60C#05A52B7D0220C8
(1591372017.625612) vcan1 60C#22AD717D0220C8
(1591372017.625612) vcan1 60C#5F84A33A0220E8
(1591372017.625613) vcan1 60D#057CCFA170800A0C
(1591372017.625614) vcan1 60D#227B2FA170800A0C
(1591372017.626545) vcan1 60D#5F7D4FA170800A0C
(1591372017.636670) vcan1 301#7FFE000000000000
(1591372017.637679) vcan1 300#0000
(1591372017.686325) vcan1 301#8002000000000000
(1591372017.687347) vcan1 300#0000
(1591372017.693388) vcan1 60A#03C2DB10
(1591372017.694367) vcan1 60B#0554040780200186
(1591372017.694368) vcan1 60B#225853C78020A188
(1591372017.694369) vcan1 60B#5F5F23CC80200192
(1591372017.694370) vcan1 60C#059D297C0220E8
(1591372017.695388) vcan1 60C#22A56D7C8220E8
(1591372017.695389) vcan1 60C#5F84A33A0220E8
(1591372017.695389) vcan1 60D#057AEFA170800A0C
(1591372017.695391) vcan1 60D#227ACFA170800A0C
(1591372017.696386) vcan1 60D#5F7D2FA170800A0C
(1591372017.736487) vcan1 301#8003000000000000
(1591372017.737391) vcan1 300#0000
(1591372017.768440) vcan1 60A#03C2DD10
(1591372017.769451) vcan1 60B#0553FC0A8020C188
(1591372017.769452) vcan1 60B#225853C78020A188
(1591372017.769453) vcan1 60B#5F5F23CC80200192
(1591372017.769454) vcan1 60C#059CE57B8220E8
(1591372017.770408) vcan1 60C#22A56F7C8220CC
(1591372017.770409) vcan1 60C#5F84A33A0220E8
(1591372017.770409) vcan1 60D#057C4FA170800A0C
(1591372017.770410) vcan1 60D#227ACFA170800A0C
(1591372017.771477) vcan1 60D#5F7D2FA170800A0C
(1591372017.786431) vcan1 301#8004000000000000
(1591372017.787432) vcan1 300#0000
(1591372017.836945) vcan1 301#8007000000000000
(1591372017.837889) vcan1 300#0000
(1591372017.839046) vcan1 60A#03C2DF10
(1591372017.839950) vcan1 60B#0553FC0B80212189
(1591372017.839951) vcan1 60B#22585BC98020E186
(1591372017.839952) vcan1 60B#5F5F23CC80200192
(1591372017.839952) vcan1 60C#059CE56B8220E8
(1591372017.839953) vcan1 60C#22A56D7C0220C8
(1591372017.840939) vcan1 60C#5F84A33A0220E8
(1591372017.840942) vcan1 60D#057D2FA170800A0C
(1591372017.840943) vcan1 60D#22734FA170800A0C
(1591372017.840945) vcan1 60D#5F7D2FA170800A0C
(1591372017.886804) vcan1 301#8002000000000000
(1591372017.887807) vcan1 300#0000
(1591372017.908393) vcan1 60A#03C2E110
(1591372017.909406) vcan1 60B#0554040C8021018B
(1591372017.909407) vcan1 60B#22585BCB80212188
(1591372017.909407) vcan1 60B#5F5F23CC80200193
(1591372017.909408) vcan1 60C#0594E56B0220E8
(1591372017.910495) vcan1 60C#229D296B8220E8
(1591372017.910497) vcan1 60C#5F84A33A0220E8
(1591372017.910498) vcan1 60D#057CAFA170800A0C
(1591372017.910499) vcan1 60D#2271AFA170800A0C
(1591372017.910500) vcan1 60D#5F7D0FA170800A0C
(1591372017.936489) vcan1 301#8003000000000000
(1591372017.937472) vcan1 300#0000
(1591372017.983569) vcan1 60A#03C2E310
(1591372017.984668) vcan1 60B#0554040B8020C18C
(1591372017.984668) vcan1 60B#22585BCC80212186
(1591372017.984670) vcan1 60B#5F5F23CC80200193
(1591372017.984670) vcan1 60C#0594E56A8220E8
(1591372017.985617) vcan1 60C#229D296B8220C8
(1591372017.985618) vcan1 60C#5F84A33A0220E8
(1591372017.985619) vcan1 60D#057CEFA170800A0C
(1591372017.985620) vcan1 60D#2273EFA170800A0C
(1591372017.986667) vcan1 60D#5F7D0FA170800A0C
(1591372017.986668) vcan1 301#8002000000000000
(1591372017.986668) vcan1 300#0000
(1591372018.036475) vcan1 301#8003000000000000
(1591372018.037589) vcan1 300#0000
(1591372018.058441) vcan1 60A#03C2E510
(1591372018.059459) vcan1 60B#0554040A8020218A
(1591372018.059460) vcan1 60B#22586BCB80210187
(1591372018.059461) vcan1 60B#5F5F23CC80200193
(1591372018.059461) vcan1 60C#0594E35A8220E8
(1591372018.060460) vcan1 60C#229D276B8220E8
(1591372018.060461) vcan1 60C#5F84A33A0220E8
(1591372018.060462) vcan1 60D#057CCFA170800A0C
(1591372018.060463) vcan1 60D#22700FA170800A0C
(1591372018.061435) vcan1 60D#5F7D0FA170800A0C
(1591372018.086561) vcan1 301#8001000000000000
(1591372018.087492) vcan1 300#0000
(1591372018.128470) vcan1 60A#03C2E710
(1591372018.129493) vcan1 60B#05540409801FE18A
(1591372018.129493) vcan1 60B#225873CD80212188
(1591372018.129494) vcan1 60B#5F5F23CC80200193
(1591372018.129495) vcan1 60C#0594E55A8220E8
(1591372018.130533) vcan1 60C#229D256B0220E8
(1591372018.130535) vcan1 60C#5F84A33A0220E8
(1591372018.130536) vcan1 60D#057CCFA170800A0C
(1591372018.130536) vcan1 60D#226C0FA170800A0C
(1591372018.131513) vcan1 60D#5F7D0FA170800A0C
(1591372018.136504) vcan1 301#8006000000000000
(1591372018.137498) vcan1 300#0000
(1591372018.186784) vcan1 301#8007000000000000
(1591372018.187681) vcan1 300#0000
(1591372018.198417) vcan1 60A#03C2E910
(1591372018.199397) vcan1 60B#05540409801FE18A
(1591372018.199398) vcan1 60B#225873CD80210187
(1591372018.199400) vcan1 60B#5F5F23CC80200193
(1591372018.199402) vcan1 60C#0594E35A8220E8
(1591372018.200419) vcan1 60C#229CE55B0220E8
(1591372018.200420) vcan1 60C#5F84A33A0220E8
(1591372018.200421) vcan1 60D#057CCFA170800A0C
(1591372018.200423) vcan1 60D#22718FA170800A0C
(1591372018.201459) vcan1 60D#5F7D2FA170800A0C
(1591372018.236292) vcan1 301#8001000000000000
(1591372018.237281) vcan1 300#0000
(1591372018.273445) vcan1 60A#03C2EB10
(1591372018.274360) vcan1 60B#05540C09801FE18C
(1591372018.274361) vcan1 60B#22586BCB80208189
(1591372018.274362) vcan1 60B#5F5F23CC80200193
(1591372018.274362) vcan1 60C#058CE35A0220E8
(1591372018.275508) vcan1 60C#2294E55A8220E8
(1591372018.275508) vcan1 60C#5F84A33A0220E8
(1591372018.275509) vcan1 60D#057CCFA170800A0C
(1591372018.275510) vcan1 60D#2274EFA170800A0C
(1591372018.275511) vcan1 60D#5F7D0FA170800A0C
(1591372018.286273) vcan1 301#8006000000000000
(1591372018.287574) vcan1 300#0000
(1591372018.336449) vcan1 301#8003000000000000
(1591372018.337465) vcan1 300#0000
(1591372018.343355) vcan1 60A#03C2ED10
(1591372018.344341) vcan1 60B#05540C0A8020418C
(1591372018.344341) vcan1 60B#22586BCC80208188
(1591372018.344342) vcan1 60B#5F5F23CC80200193
(1591372018.344342) vcan1 60C#058CA34A0220E8
(1591372018.345361) vcan1 60C#2294E55A8220E8
(1591372018.345362) vcan1 60C#5F84A33A0220E8
(1591372018.345362) vcan1 60D#057CAFA170800A0C
(1591372018.345362) vcan1 60D#2278AFA170800A0C
(1591372018.346382) vcan1 60D#5F7D0FA170800A0C
(1591372018.363463) vcan1 201#401F400010340000
(1591372018.364468) vcan1 700#041E0100
(1591372018.386625) vcan1 301#8001000000000000
(1591372018.387771) vcan1 300#0000
(1591372018.414110) vcan1 60A#03C2EF10
(1591372018.414993) vcan1 60B#05540C08801FC189
(1591372018.414994) vcan1 60B#225863CC80208189
(1591372018.414994) vcan1 60B#5F5F23CC80200193
(1591372018.414995) vcan1 60C#058CA34A0220E8
(1591372018.415772) vcan1 60C#2294E55A8220E8
(1591372018.415773) vcan1 60C#5F84A33A0220E8
(1591372018.415773) vcan1 60D#057CAFA170800A0C
(1591372018.415773) vcan1 60D#227AEFA170800A0C
(1591372018.416802) vcan1 60D#5F7D0FA170800A0C
(1591372018.436696) vcan1 301#8002000000000000
(1591372018.437448) vcan1 300#0000
(1591372018.486622) vcan1 301#8000000000000000
(1591372018.487604) vcan1 300#0000
(1591372018.488664) vcan1 60A#03C2F110
(1591372018.489641) vcan1 60B#05540C0980200189
(1591372018.489642) vcan1 60B#225863CB8020618C
(1591372018.489643) vcan1 60B#5F5F23CC80200193
(1591372018.489644) vcan1 60C#058CA34A0220E8
(1591372018.490690) vcan1 60C#2294E55A8220E8
(1591372018.490691) vcan1 60C#5F84A33A0220E8
(1591372018.490692) vcan1 60D#057CCFA170800A0C
(1591372018.490694) vcan1 60D#227BAFA170800A0C
(1591372018.491707) vcan1 60D#5F7D0FA170800A0C
(1591372018.536581) vcan1 301#8002000000000000
(1591372018.537575) vcan1 300#0000
(1591372018.558383) vcan1 60A#03C2F310
(1591372018.559395) vcan1 60B#05540C0A80202184
(1591372018.559397) vcan1 60B#225863CC8020618B
(1591372018.559398) vcan1 60B#5F5F23CC80200193
(1591372018.559400) vcan1 60C#058CE54A0220C8
(1591372018.560439) vcan1 60C#2294E34A0220E8
(1591372018.560440) vcan1 60C#5F84A33A0220E8
(1591372018.560441) vcan1 60D#057CCFA170800A0C
(1591372018.560443) vcan1 60D#227C4FA170800A0C
(1591372018.561421) vcan1 60D#5F7D0FA170800A0C
(1591372018.586575) vcan1 301#8006000000000000
(1591372018.587605) vcan1 300#0000
(1591372018.628373) vcan1 60A#03C2F510
(1591372018.629389) vcan1 60B#05540C0B80202184
(1591372018.629390) vcan1 60B#22586BCC80208189
(1591372018.629391) vcan1 60B#5F5F23CC80200193
(1591372018.629392) vcan1 60C#058CE54A0220E8
(1591372018.630414) vcan1 60C#2294E34A0220E8
(1591372018.630414) vcan1 60C#5F84A33A0220E8
(1591372018.630415) vcan1 60D#057CEFA170800A0C
(1591372018.630416) vcan1 60D#227C4FA170800A0C
(1591372018.630416) vcan1 60D#5F7D0FA170800A0C
(1591372018.636357) vcan1 301#7FFF000000000000
(1591372018.637408) vcan1 300#0000
(1591372018.686871) vcan1 301#7FFD000000000000
(1591372018.687770) vcan1 300#0000
(1591372018.703428) vcan1 60A#03C2F710
(1591372018.704531) vcan1 60B#05540C0B80204184
(1591372018.704532) vcan1 60B#22586BCD80208187
(1591372018.704532) vcan1 60B#5F5F23CC80200193
(1591372018.704533) vcan1 60C#058CA34A0220E8
(1591372018.705464) vcan1 60C#228CE34A0220E8
(1591372018.705465) vcan1 60C#5F84A33A0220E8
(1591372018.705466) vcan1 60D#057CCFA170800A0C
(1591372018.705467) vcan1 60D#227CAFA170800A0C
(1591372018.706453) vcan1 60D#5F7D0FA170800A0C
(1591372018.736446) vcan1 301#8007000000000000
(1591372018.737462) vcan1 300#0000
(1591372018.773281) vcan1 60A#03C2F910
(1591372018.774253) vcan1 60B#05540C0C80204185
(1591372018.774254) vcan1 60B#225863CC8020418A
(1591372018.774255) vcan1 60B#5F5F23CC80200193
(1591372018.774256) vcan1 60C#058CA34A0220E8
(1591372018.775343) vcan1 60C#228CE34A0220E8
(1591372018.775344) vcan1 60C#5F84A33A0220E8
(1591372018.775345) vcan1 60D#057CAFA170800A0C
(1591372018.775345) vcan1 60D#227CAFA170800A0C
(1591372018.775346) vcan1 60D#5F7D0FA170800A0C
(1591372018.786342) vcan1 301#8006000000000000
(1591372018.787397) vcan1 300#0000
(1591372018.836495) vcan1 301#8005000000000000
(1591372018.837500) vcan1 300#0000
(1591372018.848556) vcan1 60A#03C2FB10
(1591372018.849503) vcan1 60B#05540C0C80204184
(1591372018.849504) vcan1 60B#225863CC80204189
(1591372018.849505) vcan1 60B#5F5F23CD80200193
(1591372018.849505) vcan1 60C#058CA33A0220E8
(1591372018.850485) vcan1 60C#228CE34A0220E8
(1591372018.850485) vcan1 60C#5F84A33A0220E8
(1591372018.850486) vcan1 60D#057CAFA170800A0C
(1591372018.850487) vcan1 60D#227CAFA170800A0C
(1591372018.851458) vcan1 60D#5F7D0FA170800A0C
(1591372018.886802) vcan1 301#8003000000000000
(1591372018.887875) vcan1 300#0000
(1591372018.918750) vcan1 60A#03C2FD10
(1591372018.919734) vcan1 60B#05540C0C80204186
(1591372018.919735) vcan1 60B#225863CD80206189
(1591372018.919735) vcan1 60B#5F5F23CC80200193
(1591372018.919736) vcan1 60C#058CA33A0220E8
(1591372018.920888) vcan1 60C#228CA34A0220E8
(1591372018.920889) vcan1 60C#5F84A33A0220E8
(1591372018.920890) vcan1 60D#057CAFA170800A0C
(1591372018.920891) vcan1 60D#227D2FA170800A0C
(1591372018.921758) vcan1 60D#5F7D0FA170800A0C
(1591372018.936531) vcan1 301#7FFF000000000000
(1591372018.937484) vcan1 300#0000
(1591372018.986863) vcan1 301#8001000000000000
(1591372018.987840) vcan1 300#0000
(1591372018.988884) vcan1 60A#04C2FF10
(1591372018.988885) vcan1 60B#05540C0D80206187
(1591372018.989886) vcan1 60B#225863CC80204189
(1591372018.989887) vcan1 60B#5F5F23CD80200193
(1591372018.989888) vcan1 60B#15623C4B80204185
(1591372018.989889) vcan1 60C#058CA33A0220E8
(1591372018.990903) vcan1 60C#228CE34A0220E8
(1591372018.990904) vcan1 60C#5F84A33A0220E8
(1591372018.990905) vcan1 60C#15ADAD8D0220E8
(1591372018.990906) vcan1 60D#057CAFA170800A0C
(1591372018.990907) vcan1 60D#227CEFA170800A0C
(1591372018.991915) vcan1 60D#5F7D2FA170800A0C
(1591372018.991916) vcan1 60D#157C6FA170800A0C
(1591372019.036556) vcan1 301#7FFF000000000000
(1591372019.037550) vcan1 300#0000
(1591372019.063483) vcan1 60A#04C30110
(1591372019.064519) vcan1 60B#0554140D80206187
(1591372019.064520) vcan1 60B#225863CC8020418B
(1591372019.064521) vcan1 60B#5F5F23CC80200193
(1591372019.064521) vcan1 60B#15624C4F80208189
(1591372019.065487) vcan1 60C#058CA33A0220E8
(1591372019.065488) vcan1 60C#228CE34A0220E8
(1591372019.065489) vcan1 60C#5F84A33A0220E8
(1591372019.065489) vcan1 60C#15A56D8C8220E8
(1591372019.065490) vcan1 60D#057CAFA170800A0C
(1591372019.066503) vcan1 60D#227D2FA170800A0C
(1591372019.066504) vcan1 60D#5F7D0FA170800A0C
(1591372019.066505) vcan1 60D#157AEFA170800A0C
(1591372019.086510) vcan1 301#8005000000000000
(1591372019.087531) vcan1 300#0000
(1591372019.133504) vcan1 60A#04C30310
(1591372019.134521) vcan1 60B#05540C0D80206189
(1591372019.134522) vcan1 60B#225863CC8020418B
(1591372019.134523) vcan1 60B#5F5F23CC80200193
(1591372019.134524) vcan1 60B#15625C518020C18C
(1591372019.135506) vcan1 60C#058CA33A0220E8
(1591372019.135507) vcan1 60C#228CE54A0220CC
(1591372019.135508) vcan1 60C#5F84A33A0220E8
(1591372019.135508) vcan1 60C#15A5697C0220E8
(1591372019.135509) vcan1 60D#057C8FA170800A0C
(1591372019.136534) vcan1 60D#227D2FA170800A0C
(1591372019.136535) vcan1 60D#5F7D0FA170800A0C
(1591372019.136535) vcan1 60D#157ACFA170800A0C
(1591372019.136536) vcan1 301#8005000000000000
(1591372019.137490) vcan1 300#0000
(1591372019.186315) vcan1 301#8001000000000000
(1591372019.187330) vcan1 300#0000
(1591372019.203337) vcan1 60A#04C30510
(1591372019.204353) vcan1 60B#05540C0D8020618B
(1591372019.204353) vcan1 60B#225863CC80202189
(1591372019.204353) vcan1 60B#5F5F23CC80200193
(1591372019.204354) vcan1 60B#15625C548021218E
(1591372019.205350) vcan1 60C#058CA33A0220E8
(1591372019.205350) vcan1 60C#228CE54A0220E8
(1591372019.205350) vcan1 60C#5F84A33A0220E8
(1591372019.205351) vcan1 60C#15A5277B8220E8
(1591372019.206372) vcan1 60D#057C8FA170800A0C
(1591372019.206372) vcan1 60D#227D0FA170800A0C
(1591372019.206372) vcan1 60D#5F7D0FA170800A0C
(1591372019.206372) vcan1 60D#157ACFA170800A0C
(1591372019.236306) vcan1 301#8004000000000000
(1591372019.237323) vcan1 300#0000
(1591372019.278280) vcan1 60A#04C30710
(1591372019.279337) vcan1 60B#05540C0D8020418A
(1591372019.279337) vcan1 60B#225863CC80202188
(1591372019.279337) vcan1 60B#5F5F23CD80200192
(1591372019.279338) vcan1 60B#15625C548021218F
(1591372019.280332) vcan1 60C#058CA33A0220E8
(1591372019.280333) vcan1 60C#228CE54A0220E8
(1591372019.280333) vcan1 60C#5F84A33A0220E8
(1591372019.280333) vcan1 60C#15A5257B8220E8
(1591372019.280334) vcan1 60D#057CAFA170800A0C
(1591372019.281319) vcan1 60D#227D6FA170800A0C
(1591372019.281320) vcan1 60D#5F7D2FA170800A0C
(1591372019.281320) vcan1 60D#157BAFA170800A0C
(1591372019.286359) vcan1 301#8003000000000000
(1591372019.287376) vcan1 300#0000
(1591372019.336742) vcan1 301#8006000000000000
(1591372019.337761) vcan1 300#0000
(1591372019.348641) vcan1 60A#04C30910
(1591372019.349687) vcan1 60B#05540C0D80204189
(1591372019.349687) vcan1 60B#22586BCD80204187
(1591372019.349688) vcan1 60B#5F5F23CD80200193
(1591372019.350705) vcan1 60B#156254548020C18C
(1591372019.350706) vcan1 60C#058CA33A0220E8
(1591372019.350706) vcan1 60C#228CE54A0220E8
(1591372019.350707) vcan1 60C#5F84A33A0220E8
(1591372019.350708) vcan1 60C#159D257B0220E8
(1591372019.351661) vcan1 60D#057CAFA170800A0C
(1591372019.351662) vcan1 60D#227D8FA170800A0C
(1591372019.351663) vcan1 60D#5F7D2FA170800A0C
(1591372019.351664) vcan1 60D#157C6FA170800A0C
(1591372019.363628) vcan1 201#401F400010340000
(1591372019.364605) vcan1 700#041E0100
(1591372019.386749) vcan1 301#8001000000000000
(1591372019.387743) vcan1 300#0000
(1591372019.418453) vcan1 60A#04C30B10
(1591372019.419469) vcan1 60B#05540C0E80204188
(1591372019.419470) vcan1 60B#225863CC80202188
(1591372019.419470) vcan1 60B#5F5F23CD80200192
(1591372019.419472) vcan1 60B#15624C558020E18D
(1591372019.420492) vcan1 60C#058CA33A0220E8
(1591372019.420493) vcan1 60C#228CE33A0220E8
(1591372019.420494) vcan1 60C#5F84A33A0220E8
(1591372019.420494) vcan1 60C#159D257B0220E8
(1591372019.420495) vcan1 60D#057CAFA170800A0C
(1591372019.421508) vcan1 60D#227D0FA170800A0C
(1591372019.421509) vcan1 60D#5F7D2FA170800A0C
(1591372019.421510) vcan1 60D#157D2FA170800A0C
(1591372019.436838) vcan1 301#8000000000000000
(1591372019.437848) vcan1 300#0000
(1591372019.486492) vcan1 301#8004000000000000
(1591372019.487485) vcan1 300#0000
(1591372019.493513) vcan1 60A#04C30D10
(1591372019.494548) vcan1 60B#05540C0D80204188
(1591372019.494549) vcan1 60B#22586BCC80202189
(1591372019.494549) vcan1 60B#5F5F23CD80200192
(1591372019.494550) vcan1 60B#156244568021018D
(1591372019.495541) vcan1 60C#058CA33A0220E8
(1591372019.495541) vcan1 60C#228CE33A0220E8
(1591372019.495552) vcan1 60C#5F84A33A0220E8
(1591372019.495552) vcan1 60C#159D257A8220E8
(1591372019.496550) vcan1 60D#057CCFA170800A0C
(1591372019.496550) vcan1 60D#227D2FA170800A0C
(1591372019.496551) vcan1 60D#5F7D2FA170800A0C
(1591372019.496552) vcan1 60D#157D6FA170800A0C
(1591372019.536510) vcan1 301#8007000000000000
(1591372019.537483) vcan1 300#0000
(1591372019.563457) vcan1 60A#04C30F10
(1591372019.564464) vcan1 60B#0554140D80202189
(1591372019.564466) vcan1 60B#22586BCD80202189
(1591372019.564466) vcan1 60B#5F5F23CD80200192
(1591372019.564467) vcan1 60B#156244578021218A
(1591372019.565432) vcan1 60C#058CA33A0220E8
(1591372019.565433) vcan1 60C#228CA33A0220E8
(1591372019.565434) vcan1 60C#5F84A33A0220E8
(1591372019.565435) vcan1 60C#159D256A8220E8
(1591372019.565436) vcan1 60D#057CEFA170800A0C
(1591372019.566448) vcan1 60D#227CEFA170800A0C
(1591372019.566448) vcan1 60D#5F7D0FA170800A0C
(1591372019.566449) vcan1 60D#157DCFA170800A0C
(1591372019.586480) vcan1 301#8002000000000000
(1591372019.587528) vcan1 300#0000
(1591372019.636475) vcan1 301#8007000000000000
(1591372019.637516) vcan1 300#0000
(1591372019.638514) vcan1 60A#04C31110
(1591372019.639562) vcan1 60B#0554140D80202189
(1591372019.639564) vcan1 60B#22586BCC8020218A
(1591372019.639565) vcan1 60B#5F5F23CD80200192
(1591372019.639566) vcan1 60B#1562445880214189
(1591372019.639568) vcan1 60C#058CA53A0220E8
(1591372019.640580) vcan1 60C#228CA33A0220E8
(1591372019.640581) vcan1 60C#5F84A33A0220E8
(1591372019.640582) vcan1 60C#159D656A8220E8
(1591372019.640583) vcan1 60D#057CEFA170800A0C
(1591372019.641558) vcan1 60D#227D0FA170800A0C
(1591372019.641559) vcan1 60D#5F7D0FA170800A0C
(1591372019.641559) vcan1 60D#157D8FA170800A0C
(1591372019.686357) vcan1 301#8006000000000000
(1591372019.687426) vcan1 300#0000
(1591372019.708283) vcan1 60A#04C31310
(1591372019.709309) vcan1 60B#0554140C80202189
(1591372019.709309) vcan1 60B#22586BCC8020218A
(1591372019.709310) vcan1 60B#5F5F23CD80200192
(1591372019.710301) vcan1 60B#15624C578020C18A
(1591372019.710301) vcan1 60C#058CA53A0220E8
(1591372019.710302) vcan1 60C#228CA33A0220E8
(1591372019.710302) vcan1 60C#5F84A33A0220E8
(1591372019.710303) vcan1 60C#159D256A8220E8
(1591372019.711341) vcan1 60D#057CCFA170800A0C
(1591372019.711341) vcan1 60D#227CEFA170800A0C
(1591372019.711342) vcan1 60D#5F7D0FA170800A0C
(1591372019.711342) vcan1 60D#157D4FA170800A0C
(1591372019.736473) vcan1 301#8002000000000000
(1591372019.737476) vcan1 300#0000
(1591372019.783463) vcan1 60A#04C31510
(1591372019.784525) vcan1 60B#0554140C80202187
(1591372019.784526) vcan1 60B#22586BCC8020218A
(1591372019.784527) vcan1 60B#5F5F23CC80200193
(1591372019.784528) vcan1 60B#156254588020E18E
(1591372019.785544) vcan1 60C#058CA33A0220E8
(1591372019.785545) vcan1 60C#228CE53A0220CC
(1591372019.785546) vcan1 60C#5F84A33A0220E8
(1591372019.785546) vcan1 60C#159D256A8220E8
(1591372019.786429) vcan1 60D#057CCFA170800A0C
(1591372019.786430) vcan1 60D#227CEFA170800A0C
(1591372019.786431) vcan1 60D#5F7D0FA170800A0C
(1591372019.786432) vcan1 301#8001000000000000
(1591372019.786432) vcan1 300#0000
(1591372019.787459) vcan1 60D#157D2FA170800A0C
(1591372019.836705) vcan1 301#8005000000000000
(1591372019.837679) vcan1 300#0000
(1591372019.853740) vcan1 60A#04C31710
(1591372019.854758) vcan1 60B#0554140C80202187
(1591372019.854759) vcan1 60B#22586BCD80202188
(1591372019.854759) vcan1 60B#5F5F23CC80200193
(1591372019.855779) vcan1 60B#15625C5B80214190
(1591372019.855780) vcan1 60C#058CA53A0220CC
(1591372019.855780) vcan1 60C#228CE53A8220C8
(1591372019.855781) vcan1 60C#5F84A33A0220E8
(1591372019.855781) vcan1 60C#159D256A0220E8
(1591372019.856781) vcan1 60D#057CCFA170800A0C
(1591372019.856782) vcan1 60D#227CEFA170800A0C
(1591372019.856782) vcan1 60D#5F7D0FA170800A0C
(1591372019.856783) vcan1 60D#157D2FA170800A0C
(1591372019.886756) vcan1 301#8003000000000000
(1591372019.887659) vcan1 300#0000
(1591372019.928889) vcan1 60A#04C31910
(1591372019.929787) vcan1 60B#0554140B801FE186
(1591372019.929789) vcan1 60B#22586BCD80202185
(1591372019.929789) vcan1 60B#5F5F23CD80200193
(1591372019.929790) vcan1 60B#15625C5A8021018E
(1591372019.930852) vcan1 60C#058CA53A0220E8
(1591372019.930853) vcan1 60C#228CE53A8220C8
(1591372019.930853) vcan1 60C#5F84A33A0220E8
(1591372019.930854) vcan1 60C#159D255A0220E8
(1591372019.931815) vcan1 60D#057CAFA170800A0C
(1591372019.931816) vcan1 60D#227CEFA170800A0C
(1591372019.931817) vcan1 60D#5F7D0FA170800A0C
(1591372019.931817) vcan1 60D#157CEFA170800A0C
(1591372019.936587) vcan1 301#8001000000000000
(1591372019.937481) vcan1 300#0000
(1591372019.986522) vcan1 301#8004000000000000
(1591372019.987534) vcan1 300#0000
(1591372019.998353) vcan1 60A#04C31B10
(1591372019.999418) vcan1 60B#0554140A801FE186
(1591372019.999419) vcan1 60B#22586BCD80202186
(1591372019.999420) vcan1 60B#5F5F23CD80200193
(1591372019.999421) vcan1 60B#15625C588020818C
(1591372020.000440) vcan1 60C#058CA53A0220E8
(1591372020.000441) vcan1 60C#228CE53A0220E8
(1591372020.000441) vcan1 60C#5F84A33A0220E8
(1591372020.000442) vcan1 60C#159D255A0220E8
(1591372020.001398) vcan1 60D#057CAFA170800A0C
(1591372020.001399) vcan1 60D#227D0FA170800A0C
(1591372020.001400) vcan1 60D#5F7CEFA170800A0C
(1591372020.001401) vcan1 60D#157C8FA170800A0C
(1591372020.036512) vcan1 301#8004000000000000
(1591372020.037521) vcan1 300#0000
(1591372020.068448) vcan1 60A#04C31D10
(1591372020.069511) vcan1 60B#05541409801FC186
(1591372020.069512) vcan1 60B#22586BCD80202186
(1591372020.069513) vcan1 60B#5F5F23CC80200193
(1591372020.069514) vcan1 60B#15625C588020818C
(1591372020.070419) vcan1 60C#058CA53A0220E8
(1591372020.070420) vcan1 60C#228CE53A8220CC
(1591372020.070421) vcan1 60C#5F84A33A0220E8
(1591372020.070421) vcan1 60C#159D255A8220CC
(1591372020.071548) vcan1 60D#057CEFA170800A0C
(1591372020.071549) vcan1 60D#227D0FA170800A0C
(1591372020.071550) vcan1 60D#5F7CEFA170800A0C
(1591372020.071550) vcan1 60D#157C8FA170800A0C
(1591372020.086422) vcan1 301#7FFF000000000000
(1591372020.087426) vcan1 300#0000
(1591372020.136579) vcan1 301#8005000000000000
(1591372020.137482) vcan1 300#0000
(1591372020.143351) vcan1 60A#04C31F10
(1591372020.144288) vcan1 60B#05540C09801FC186
(1591372020.144289) vcan1 60B#22586BCD80202184
(1591372020.144289) vcan1 60B#5F5F23CD80200193
(1591372020.145331) vcan1 60B#15625C588020818C
(1591372020.145332) vcan1 60C#058CA33A0220E8
(1591372020.145333) vcan1 60C#228CE53A8220C8
(1591372020.145333) vcan1 60C#5F84A33A0220E8
(1591372020.146309) vcan1 60C#1595255A0220E8
(1591372020.146310) vcan1 60D#057D0FA170800A0C
(1591372020.146320) vcan1 60D#227CCFA170800A0C
(1591372020.146321) vcan1 60D#5F7D0FA170800A0C
(1591372020.146322) vcan1 60D#157C4FA170800A0C
(1591372020.186453) vcan1 301#8006000000000000
(1591372020.187443) vcan1 300#0000
(1591372020.213303) vcan1 60A#04C32110
(1591372020.214347) vcan1 60B#05540C07801FA185
(1591372020.214348) vcan1 60B#22586BCC80200184
(1591372020.215472) vcan1 60B#5F5F23CD80200193
(1591372020.215474) vcan1 60B#15625C588020818C
(1591372020.215475) vcan1 60C#058CA53A0220E8
(1591372020.215475) vcan1 60C#228CE53A0220E8
(1591372020.215476) vcan1 60C#5F84A33A0220E8
(1591372020.216407) vcan1 60C#1595255A8220CC
(1591372020.216408) vcan1 60D#057D2FA170800A0C
(1591372020.216409) vcan1 60D#227D2FA170800A0C
(1591372020.216410) vcan1 60D#5F7D0FA170800A0C
(1591372020.217507) vcan1 60D#157C4FA170800A0C
(1591372020.236473) vcan1 301#8006000000000000
(1591372020.237373) vcan1 300#0000
(1591372020.286416) vcan1 301#7FFF000000000000
(1591372020.287430) vcan1 300#0000
(1591372020.288552) vcan1 60A#04C32310
(1591372020.289460) vcan1 60B#05540C07801FA186
(1591372020.289461) vcan1 60B#225863CC80200183
(1591372020.289462) vcan1 60B#5F5F23CD80200192
(1591372020.289463) vcan1 60B#15625C588020618D
(1591372020.290479) vcan1 60C#058CA53A0220E8
(1591372020.290479) vcan1 60C#228CE33A0220E8
(1591372020.290480) vcan1 60C#5F84A33A0220E8
(1591372020.290480) vcan1 60C#1595255A0220E8
(1591372020.291508) vcan1 60D#057D4FA170800A0C
(1591372020.291509) vcan1 60D#227DAFA170800A0C
(1591372020.291509) vcan1 60D#5F7D0FA170800A0C
(1591372020.291510) vcan1 60D#157CAFA170800A0C
(1591372020.336521) vcan1 301#8004000000000000
(1591372020.337538) vcan1 300#0000
(1591372020.358427) vcan1 60A#04C32510
(1591372020.359411) vcan1 60B#05540C08801FC187
(1591372020.359412) vcan1 60B#225863CB80200185
(1591372020.359413) vcan1 60B#5F5F23CC80200193
(1591372020.360465) vcan1 60B#15625C588020618B
(1591372020.360466) vcan1 60C#058CA53A0220E8
(1591372020.360467) vcan1 60C#228CE33A0220E8
(1591372020.360468) vcan1 60C#5F84A33A0220E8
(1591372020.361444) vcan1 60C#1595255A0220E8
(1591372020.361445) vcan1 60D#057D6FA170800A0C
(1591372020.361445) vcan1 60D#227DCFA170800A0C
(1591372020.361446) vcan1 60D#5F7D0FA170800A0C
(1591372020.361447) vcan1 60D#157CCFA170800A0C
(1591372020.363480) vcan1 201#401F400010340000
(1591372020.364463) vcan1 700#041E0100
(1591372020.386467) vcan1 301#8005000000000000
(1591372020.387529) vcan1 300#0000
(1591372020.428690) vcan1 60A#04C32710
(1591372020.429495) vcan1 60B#05540C08801FC187
(1591372020.429496) vcan1 60B#225863CB801FE185
(1591372020.429496) vcan1 60B#5F5F23CC80200193
(1591372020.430558) vcan1 60B#15625C598020818B
(1591372020.430559) vcan1 60C#058CA53A0220E8
(1591372020.430559) vcan1 60C#228CE33A0220E8
(1591372020.430560) vcan1 60C#5F84A33A0220E8
(1591372020.431575) vcan1 60C#1595255A0220E8
(1591372020.431576) vcan1 60D#057D4FA170800A0C
(1591372020.431576) vcan1 60D#227E2FA170800A0C
(1591372020.431576) vcan1 60D#5F7D0FA170800A0C
(1591372020.431577) vcan1 60D#157CAFA170800A0C
(1591372020.436497) vcan1 301#8001000000000000
(1591372020.437520) vcan1 300#0000
(1591372020.486534) vcan1 301#8004000000000000
(1591372020.487520) vcan1 300#0000
(1591372020.498515) vcan1 60A#04C32910
(1591372020.499459) vcan1 60B#05540C07801FC187
(1591372020.499471) vcan1 60B#225863CC80200184
(1591372020.500540) vcan1 60B#5F5F23CC80200193
(1591372020.500541) vcan1 60B#15625C578020418A
(1591372020.500542) vcan1 60C#058CA33A0220E8
(1591372020.500542) vcan1 60C#228CA33A0220E8
(1591372020.500543) vcan1 60C#5F84A33A0220E8
(1591372020.501546) vcan1 60C#1595254A0220E8
(1591372020.501547) vcan1 60D#057D6FA170800A0C
(1591372020.501548) vcan1 60D#227E6FA170800A0C
(1591372020.501548) vcan1 60D#5F7CEFA170800A0C
(1591372020.502542) vcan1 60D#157CAFA170800A0C
(1591372020.536574) vcan1 301#8004000000000000
(1591372020.537593) vcan1 300#0000
(1591372020.573544) vcan1 60A#04C32B10
(1591372020.574547) vcan1 60B#05540C08801FC188
(1591372020.574548) vcan1 60B#225863CB80200184
(1591372020.574549) vcan1 60B#5F5F23CC80200193
(1591372020.575520) vcan1 60B#15625C568020218B
(1591372020.575520) vcan1 60C#058CA33A0220E8
(1591372020.575521) vcan1 60C#228CA33A0220E8
(1591372020.575522) vcan1 60C#5F84A33A0220E8
(1591372020.576518) vcan1 60C#1595254A0220E8
(1591372020.576521) vcan1 60D#057D6FA170800A0C
(1591372020.576523) vcan1 60D#227DCFA170800A0C
(1591372020.576524) vcan1 60D#5F7CEFA170800A0C
(1591372020.577475) vcan1 60D#157CCFA170800A0C
(1591372020.586716) vcan1 301#8003000000000000
(1591372020.587631) vcan1 300#0000
(1591372020.636573) vcan1 301#8003000000000000
(1591372020.637567) vcan1 300#0000
(1591372020.643414) vcan1 60A#04C32D10
(1591372020.644281) vcan1 60B#05540C08801FE188
(1591372020.644283) vcan1 60B#225863CB80200183
(1591372020.645332) vcan1 60B#5F5F23CC80200193
(1591372020.645333) vcan1 60B#15625C558020018D
(1591372020.645334) vcan1 60C#058CA53A0220E8
(1591372020.645334) vcan1 60C#228CA33A0220E8
(1591372020.645335) vcan1 60C#5F84A33A0220E8
(1591372020.646309) vcan1 60C#1595254A0220E8
(1591372020.646310) vcan1 60D#057D6FA170800A0C
(1591372020.646311) vcan1 60D#227DCFA170800A0C
(1591372020.646312) vcan1 60D#5F7D0FA170800A0C
(1591372020.647459) vcan1 60D#157D0FA170800A0C
(1591372020.686580) vcan1 301#8003000000000000
(1591372020.687501) vcan1 300#0000
(1591372020.718377) vcan1 60A#04C32F10
(1591372020.719550) vcan1 60B#05540C09801FE188
(1591372020.719552) vcan1 60B#225863CB801FE183
(1591372020.719552) vcan1 60B#5F5F23CC80200193
(1591372020.720441) vcan1 60B#15625C548020018B
(1591372020.720442) vcan1 60C#058CA53A0220E8
(1591372020.720443) vcan1 60C#228CA53A0220E8
(1591372020.720444) vcan1 60C#5F84A33A0220E8
(1591372020.721480) vcan1 60C#1595254A0220E8
(1591372020.721482) vcan1 60D#057D4FA170800A0C
(1591372020.721483) vcan1 60D#227D8FA170800A0C
(1591372020.721483) vcan1 60D#5F7D0FA170800A0C
(1591372020.721484) vcan1 60D#157D0FA170800A0C
(1591372020.736416) vcan1 301#7FFF000000000000
(1591372020.737379) vcan1 300#0000
(1591372020.786536) vcan1 301#8004000000000000
(1591372020.787487) vcan1 300#0000
(1591372020.788531) vcan1 60A#04C33110
(1591372020.789611) vcan1 60B#05540C0980200188
(1591372020.789612) vcan1 60B#225863CB80200180
(1591372020.789613) vcan1 60B#5F5F23CC80200192
(1591372020.790612) vcan1 60B#15625C548020018B
(1591372020.790613) vcan1 60C#058CA53A0220E8
(1591372020.790613) vcan1 60C#228CA53A0220E8
(1591372020.790615) vcan1 60C#5F84A33A0220E8
(1591372020.791597) vcan1 60C#1595254A8220CC
(1591372020.791599) vcan1 60D#057D4FA170800A0C
(1591372020.791599) vcan1 60D#227DAFA170800A0C
(1591372020.791611) vcan1 60D#5F7D0FA170800A0C
(1591372020.792646) vcan1 60D#157D0FA170800A0C
(1591372020.836729) vcan1 301#8001000000000000
(1591372020.837715) vcan1 300#0000
(1591372020.863660) vcan1 60A#04C33310
(1591372020.864672) vcan1 60B#05540C08801FE186
(1591372020.864673) vcan1 60B#225863CB80200183
(1591372020.864674) vcan1 60B#5F5F23CC80200193
(1591372020.865695) vcan1 60B#15625C548020018B
(1591372020.865695) vcan1 60C#058CA33A0220E8
(1591372020.865697) vcan1 60C#228CA53A0220E8
(1591372020.865698) vcan1 60C#5F84A33A0220E8
(1591372020.866738) vcan1 60C#1595254A8220CC
(1591372020.866739) vcan1 60D#057D2FA170800A0C
(1591372020.866740) vcan1 60D#227D6FA170800A0C
(1591372020.866741) vcan1 60D#5F7D0FA170800A0C
(1591372020.866742) vcan1 60D#157D0FA170800A0C
(1591372020.886609) vcan1 301#8005000000000000
(1591372020.887659) vcan1 300#0000
(1591372020.934452) vcan1 60A#03C33510
(1591372020.935471) vcan1 60B#05541408801FE185
(1591372020.935472) vcan1 60B#225863CB80200183
(1591372020.935472) vcan1 60B#5F5F23CD80200193
(1591372020.935473) vcan1 60C#058CA33A0220E8
(1591372020.936651) vcan1 60C#228CE53A0220E8
(1591372020.936652) vcan1 60C#5F84A33A0220E8
(1591372020.936653) vcan1 60D#057D0FA170800A0C
(1591372020.936654) vcan1 60D#227D6FA170800A0C
(1591372020.937532) vcan1 60D#5F7D0FA170800A0C
(1591372020.937533) vcan1 301#8007000000000000
(1591372020.937533) vcan1 300#0000
(1591372020.986620) vcan1 301#8005000000000000
(1591372020.987617) vcan1 300#0000
(1591372021.004415) vcan1 60A#03C33710
(1591372021.005500) vcan1 60B#05541408801FE183
(1591372021.005501) vcan1 60B#225863CB80200181
(1591372021.005502) vcan1 60B#5F5F23CC80200193
(1591372021.005504) vcan1 60C#058CA53A0220C8
(1591372021.006383) vcan1 60C#228CE53A0220C8
(1591372021.006384) vcan1 60C#5F84A33A0220E8
(1591372021.006385) vcan1 60D#057CEFA170800A0C
(1591372021.006385) vcan1 60D#227D6FA170800A0C
(1591372021.007454) vcan1 60D#5F7CEFA170800A0C
(1591372021.036567) vcan1 301#8005000000000000
(1591372021.037446) vcan1 300#0000
(1591372021.079334) vcan1 60A#03C33910
(1591372021.080444) vcan1 60B#05541406801FC185
(1591372021.080445) vcan1 60B#225863CC80200182
(1591372021.080446) vcan1 60B#5F5F23CC80200193
(1591372021.080449) vcan1 60C#058CA33A0220E8
(1591372021.081441) vcan1 60C#228CA33A0220E8
(1591372021.081443) vcan1 60C#5F84A33A0220E8
(1591372021.081444) vcan1 60D#057C8FA170800A0C
(1591372021.081446) vcan1 60D#227CAFA170800A0C
(1591372021.081447) vcan1 60D#5F7D0FA170800A0C
(1591372021.086471) vcan1 301#7FFF000000000000
(1591372021.087463) vcan1 300#0000
(1591372021.136578) vcan1 301#7FFF000000000000
(1591372021.137530) vcan1 300#0000
(1591372021.149454) vcan1 60A#03C33B10
(1591372021.150508) vcan1 60B#05541405801FA186
(1591372021.150509) vcan1 60B#225863CB80200185
(1591372021.150510) vcan1 60B#5F5F23CD80200192
(1591372021.150511) vcan1 60C#058CA33A0220E8
(1591372021.151513) vcan1 60C#228CA33A0220E8
(1591372021.151515) vcan1 60C#5F84A33A0220E8
(1591372021.151516) vcan1 60D#057C8FA170800A0C
(1591372021.151517) vcan1 60D#227CAFA170800A0C
(1591372021.152511) vcan1 60D#5F7D0FA170800A0C
(1591372021.186546) vcan1 301#8003000000000000
(1591372021.187559) vcan1 300#0000
(1591372021.219450) vcan1 60A#03C33D10
(1591372021.220524) vcan1 60B#05541406801FC186
(1591372021.220535) vcan1 60B#225863CA801FE186
(1591372021.220536) vcan1 60B#5F5F23CD80200192
(1591372021.220536) vcan1 60C#058CA33A0220E8
(1591372021.221543) vcan1 60C#228CA53A0220E8
(1591372021.221544) vcan1 60C#5F84A33A0220E8
(1591372021.221545) vcan1 60D#057CCFA170800A0C
(1591372021.221545) vcan1 60D#227CEFA170800A0C
(1591372021.222437) vcan1 60D#5F7D0FA170800A0C
(1591372021.236389) vcan1 301#8005000000000000
(1591372021.237400) vcan1 300#0000
(1591372021.286564) vcan1 301#7FFF000000000000
(1591372021.287412) vcan1 300#0000
(1591372021.294244) vcan1 60A#03C33F10
(1591372021.295273) vcan1 60B#05541405801FA186
(1591372021.295274) vcan1 60B#225863CB801FE188
(1591372021.295275) vcan1 60B#5F5F23CD80200192
(1591372021.295275) vcan1 60C#058CA33A0220E8
(1591372021.296288) vcan1 60C#228CA53A0220E8
(1591372021.296289) vcan1 60C#5F84A33A0220E8
(1591372021.296290) vcan1 60D#057CCFA170800A0C
(1591372021.296291) vcan1 60D#227D0FA170800A0C
(1591372021.296292) vcan1 60D#5F7D0FA170800A0C
(1591372021.336654) vcan1 301#8003000000000000
(1591372021.337657) vcan1 300#0000
(1591372021.364460) vcan1 60A#03C34110
(1591372021.365479) vcan1 60B#05540C04801FA186
(1591372021.365480) vcan1 201#401F400010340000
(1591372021.365481) vcan1 60B#225863CA801FE186
(1591372021.365482) vcan1 700#041E0100
(1591372021.366541) vcan1 60B#5F5F23CC80200192
(1591372021.366542) vcan1 60C#058CA33A0220E8
(1591372021.366542) vcan1 60C#228CA33A0220E8
(1591372021.366543) vcan1 60C#5F84A33A0220E8
(1591372021.366544) vcan1 60D#057CEFA170800A0C
(1591372021.367556) vcan1 60D#227CAFA170800A0C
(1591372021.367556) vcan1 60D#5F7D0FA170800A0C
(1591372021.386838) vcan1 301#8003000000000000
(1591372021.387702) vcan1 300#0000
(1591372021.436595) vcan1 301#8007000000000000
(1591372021.437528) vcan1 300#0000
(1591372021.439521) vcan1 60A#03C34310
(1591372021.440585) vcan1 60B#05540C03801F8186
(1591372021.440586) vcan1 60B#225863CA801FE187
(1591372021.440587) vcan1 60B#5F5F23CC80200192
(1591372021.440588) vcan1 60C#058CA33A0220E8
(1591372021.441614) vcan1 60C#228CA33A0220E8
(1591372021.441615) vcan1 60C#5F84A33A0220E8
(1591372021.441616) vcan1 60D#057D0FA170800A0C
(1591372021.441616) vcan1 60D#227D0FA170800A0C
(1591372021.442690) vcan1 60D#5F7D0FA170800A0C
(1591372021.486626) vcan1 301#7FFD000000000000
(1591372021.487647) vcan1 300#0000
(1591372021.509564) vcan1 60A#03C34510
(1591372021.510559) vcan1 60B#05540C04801FA185
(1591372021.510559) vcan1 60B#22585BCA801FE187
(1591372021.510560) vcan1 60B#5F5F23CC80200192
(1591372021.510560) vcan1 60C#058CA33A0220E8
(1591372021.511583) vcan1 60C#228CA33A0220E8
(1591372021.511583) vcan1 60C#5F84A33A0220E8
(1591372021.511584) vcan1 60D#057D4FA170800A0C
(1591372021.511584) vcan1 60D#227D8FA170800A0C
(1591372021.512607) vcan1 60D#5F7D0FA170800A0C
(1591372021.536568) vcan1 301#8005000000000000
(1591372021.537519) vcan1 300#0000
(1591372021.579459) vcan1 60A#03C34710
(1591372021.580523) vcan1 60B#05540C03801F8184
(1591372021.580523) vcan1 60B#22585BCA801FE187
(1591372021.580524) vcan1 60B#5F5F23CC80200192
(1591372021.580524) vcan1 60C#058CA33A0220E8
(1591372021.581427) vcan1 60C#228CA33A0220E8
(1591372021.581427) vcan1 60C#5F84A33A0220E8
(1591372021.581428) vcan1 60D#057D8FA170800A0C
(1591372021.581428) vcan1 60D#227DEFA170800A0C
(1591372021.582529) vcan1 60D#5F7D0FA170800A0C
(1591372021.586556) vcan1 301#8002000000000000
(1591372021.587575) vcan1 300#0000
(1591372021.636618) vcan1 301#8002000000000000
(1591372021.637568) vcan1 300#0000
(1591372021.654391) vcan1 60A#03C34910
(1591372021.655443) vcan1 60B#05540C03801F8185
(1591372021.655444) vcan1 60B#225863CA801FE189
(1591372021.655445) vcan1 60B#5F5F23CC80200192
(1591372021.655445) vcan1 60C#058CA33A0220E8
(1591372021.656525) vcan1 60C#228CA33A0220E8
(1591372021.656526) vcan1 60C#5F84A33A0220E8
(1591372021.656526) vcan1 60D#057DCFA170800A0C
(1591372021.656527) vcan1 60D#227DEFA170800A0C
(1591372021.657542) vcan1 60D#5F7D0FA170800A0C
(1591372021.686470) vcan1 301#8002000000000000
(1591372021.687482) vcan1 300#0000
(1591372021.724826) vcan1 60A#03C34B10
(1591372021.725579) vcan1 60B#05540C02801F8183
(1591372021.725580) vcan1 60B#225863CA801FE18A
(1591372021.725580) vcan1 60B#5F5F23CC80200192
(1591372021.725581) vcan1 60C#058CA53A0220E8
(1591372021.726659) vcan1 60C#228CA33A0220E8
(1591372021.726660) vcan1 60C#5F84A33A0220E8
(1591372021.726660) vcan1 60D#057DCFA170800A0C
(1591372021.726660) vcan1 60D#227DAFA170800A0C
(1591372021.727593) vcan1 60D#5F7D0FA170800A0C
(1591372021.736623) vcan1 301#8002000000000000
(1591372021.737633) vcan1 300#0000
(1591372021.786670) vcan1 301#8004000000000000
(1591372021.787596) vcan1 300#0000
(1591372021.794559) vcan1 60A#03C34D10
(1591372021.795535) vcan1 60B#05540C02801F8184
(1591372021.795535) vcan1 60B#225863CB8020018A
(1591372021.795536) vcan1 60B#5F5F23CC80200193
(1591372021.795536) vcan1 60C#058CA53A0220E8
(1591372021.796668) vcan1 60C#228CA33A0220E8
(1591372021.796669) vcan1 60C#5F84A33A0220E8
(1591372021.796670) vcan1 60D#057DCFA170800A0C
(1591372021.796671) vcan1 60D#227DCFA170800A0C
(1591372021.797595) vcan1 60D#5F7D0FA170800A0C
(1591372021.836628) vcan1 301#8000000000000000
(1591372021.837664) vcan1 300#0000
(1591372021.869631) vcan1 60A#03C34F10
(1591372021.870697) vcan1 60B#05540C02801FA184
(1591372021.870698) vcan1 60B#225863CC8020218A
(1591372021.870699) vcan1 60B#5F5F23CC80200193
(1591372021.870700) vcan1 60C#058CA33A0220E8
(1591372021.871572) vcan1 60C#228CA33A0220E8
(1591372021.871573) vcan1 60C#5F84A33A0220E8
(1591372021.871574) vcan1 60D#057DAFA170800A0C
(1591372021.871575) vcan1 60D#227D8FA170800A0C
(1591372021.872632) vcan1 60D#5F7D0FA170800A0C
(1591372021.886873) vcan1 301#8001000000000000
(1591372021.887869) vcan1 300#0000
(1591372021.936727) vcan1 301#8004000000000000
(1591372021.937665) vcan1 300#0000
(1591372021.939557) vcan1 60A#03C35110
(1591372021.940577) vcan1 60B#05540C02801FA184
(1591372021.940578) vcan1 60B#225863CC80202187
(1591372021.940578) vcan1 60B#5F5F23CC80200193
(1591372021.940579) vcan1 60C#058CA33A0220E8
(1591372021.941619) vcan1 60C#228CA33A0220E8
(1591372021.941620) vcan1 60C#5F84A33A0220E8
(1591372021.941621) vcan1 60D#057D8FA170800A0C
(1591372021.941622) vcan1 60D#227D8FA170800A0C
(1591372021.942715) vcan1 60D#5F7D0FA170800A0C
(1591372021.986724) vcan1 301#8004000000000000
(1591372021.987715) vcan1 300#0000
(1591372022.014394) vcan1 60A#03C35310
(1591372022.015435) vcan1 60B#05540C02801FA185
(1591372022.015436) vcan1 60B#225863CC80202188
(1591372022.015436) vcan1 60B#5F5F23CC80200193
(1591372022.015447) vcan1 60C#058CA33A0220E8
(1591372022.016434) vcan1 60C#228CA33A0220E8
(1591372022.016435) vcan1 60C#5F84A33A0220E8
(1591372022.016436) vcan1 60D#057D8FA170800A0C
(1591372022.016436) vcan1 60D#227D2FA170800A0C
(1591372022.017453) vcan1 60D#5F7D0FA170800A0C
(1591372022.036510) vcan1 301#8003000000000000
(1591372022.037509) vcan1 300#0000
(1591372022.084396) vcan1 60A#03C35510
(1591372022.085390) vcan1 60B#05540C02801FA186
(1591372022.085391) vcan1 60B#225863CD80202188
(1591372022.085391) vcan1 60B#5F5F23CC80200193
(1591372022.085392) vcan1 60C#058CA33A0220E8
(1591372022.086391) vcan1 60C#228CA33A0220E8
(1591372022.086393) vcan1 60C#5F84A33A0220E8
(1591372022.086393) vcan1 60D#057D8FA170800A0C
(1591372022.086393) vcan1 60D#227D0FA170800A0C
(1591372022.087390) vcan1 301#8002000000000000
(1591372022.087390) vcan1 300#0000
(1591372022.087391) vcan1 60D#5F7D0FA170800A0C
(1591372022.136675) vcan1 301#8007000000000000
(1591372022.137567) vcan1 300#0000
(1591372022.159396) vcan1 60A#03C35710
(1591372022.160396) vcan1 60B#05540C02801FC186
(1591372022.160396) vcan1 60B#225863CD80202188
(1591372022.160397) vcan1 60B#5F5F23CC80200193
(1591372022.160398) vcan1 60C#058CA33A0220E8
(1591372022.161421) vcan1 60C#228CA53A0220C8
(1591372022.161422) vcan1 60C#5F84A33A0220E8
(1591372022.161424) vcan1 60D#057D6FA170800A0C
(1591372022.161424) vcan1 60D#227CEFA170800A0C
(1591372022.162441) vcan1 60D#5F7CEFA170800A0C
(1591372022.186437) vcan1 301#8004000000000000
(1591372022.187564) vcan1 300#0000
(1591372022.229609) vcan1 60A#03C35910
(1591372022.230725) vcan1 60B#05540C02801FC186
(1591372022.230726) vcan1 60B#225863CD80202188
(1591372022.230726) vcan1 60B#5F5F23CC80200192
(1591372022.230727) vcan1 60C#058CA53A0220CC
(1591372022.231670) vcan1 60C#228CA53A0220E8
(1591372022.231672) vcan1 60C#5F84A33A0220E8
(1591372022.231672) vcan1 60D#057D6FA170800A0C
(1591372022.231673) vcan1 60D#227CEFA170800A0C
(1591372022.232628) vcan1 60D#5F7D0FA170800A0C
(1591372022.236492) vcan1 301#8001000000000000
(1591372022.237546) vcan1 300#0000
(1591372022.286468) vcan1 301#8005000000000000
(1591372022.287487) vcan1 300#0000
(1591372022.299267) vcan1 60A#03C35B10
(1591372022.300312) vcan1 60B#05540C02801FC184
(1591372022.300313) vcan1 60B#225863CC80202189
(1591372022.300314) vcan1 60B#5F5F23CC80200192
(1591372022.300314) vcan1 60C#058CA53A0220C8
(1591372022.301423) vcan1 60C#228CA53A0220E8
(1591372022.301424) vcan1 60C#5F84A33A0220E8
(1591372022.301426) vcan1 60D#057D6FA170800A0C
(1591372022.301426) vcan1 60D#227C8FA170800A0C
(1591372022.302332) vcan1 60D#5F7CEFA170800A0C
(1591372022.336700) vcan1 301#8006000000000000
(1591372022.337689) vcan1 300#0000
(1591372022.364670) vcan1 201#401F400010340000
(1591372022.365662) vcan1 700#041E0100
(1591372022.374598) vcan1 60A#03C35D10
(1591372022.375612) vcan1 60B#05540C02801FC183
(1591372022.375613) vcan1 60B#225863CD8020218A
(1591372022.375613) vcan1 60B#5F5F23CC80200192
(1591372022.375613) vcan1 60C#058CA53A0220E8
(1591372022.376642) vcan1 60C#228CA33A0220E8
(1591372022.376643) vcan1 60C#5F84A33A0220E8
(1591372022.376643) vcan1 60D#057D2FA170800A0C
(1591372022.376643) vcan1 60D#227C4FA170800A0C
(1591372022.377646) vcan1 60D#5F7CEFA170800A0C
(1591372022.386865) vcan1 301#7FFE000000000000
(1591372022.387870) vcan1 300#0000
(1591372022.436928) vcan1 301#8003000000000000
(1591372022.437977) vcan1 300#0000
(1591372022.444394) vcan1 60A#03C35F10
(1591372022.445415) vcan1 60B#05540C01801FA183
(1591372022.445415) vcan1 60B#225863CD8020218B
(1591372022.445415) vcan1 60B#5F5F23CC80200192
(1591372022.445416) vcan1 60C#058CA53A0220E8
(1591372022.446414) vcan1 60C#228CA33A0220E8
(1591372022.446414) vcan1 60C#5F84A33A0220E8
(1591372022.446415) vcan1 60D#057CEFA170800A0C
(1591372022.446415) vcan1 60D#227C4FA170800A0C
(1591372022.447432) vcan1 60D#5F7CEFA170800A0C
(1591372022.486584) vcan1 301#8007000000000000
(1591372022.487602) vcan1 300#0000
(1591372022.519502) vcan1 60A#03C36110
(1591372022.520517) vcan1 60B#05540C02801FC185
(1591372022.520518) vcan1 60B#225863CD8020218B
(1591372022.520518) vcan1 60B#5F5F23CC80200192
(1591372022.520519) vcan1 60C#058CA33A0220E8
(1591372022.521540) vcan1 60C#228CA33A0220E8
(1591372022.521541) vcan1 60C#5F84A33A0220E8
(1591372022.521541) vcan1 60D#057CEFA170800A0C
(1591372022.521542) vcan1 60D#227C2FA170800A0C
(1591372022.521542) vcan1 60D#5F7CEFA170800A0C
(1591372022.536606) vcan1 301#8004000000000000
(1591372022.537623) vcan1 300#0000
(1591372022.586609) vcan1 301#8003000000000000
(1591372022.587601) vcan1 300#0000
(1591372022.589480) vcan1 60A#03C36310
(1591372022.590533) vcan1 60B#05540C02801FE186
(1591372022.590533) vcan1 60B#225863CC8020218D
(1591372022.590533) vcan1 60B#5F5F23CC80200192
(1591372022.590534) vcan1 60C#058CA33A0220E8
(1591372022.591579) vcan1 60C#228CA33A0220E8
(1591372022.591580) vcan1 60C#5F84A33A0220E8
(1591372022.591580) vcan1 60D#057D0FA170800A0C
(1591372022.591580) vcan1 60D#227C4FA170800A0C
(1591372022.592549) vcan1 60D#5F7CEFA170800A0C
(1591372022.636683) vcan1 301#8003000000000000
(1591372022.637705) vcan1 300#0000
(1591372022.659418) vcan1 60A#03C36510
(1591372022.660435) vcan1 60B#05540C03801FE186
(1591372022.660436) vcan1 60B#225863CC8020018D
(1591372022.660436) vcan1 60B#5F5F23CC80200192
(1591372022.660436) vcan1 60C#058CA33A0220E8
(1591372022.661473) vcan1 60C#228CA33A0220E8
(1591372022.661473) vcan1 60C#5F84A33A0220E8
(1591372022.661473) vcan1 60D#057D4FA170800A0C
(1591372022.661474) vcan1 60D#227C6FA170800A0C
(1591372022.662494) vcan1 60D#5F7CEFA170800A0C
(1591372022.686538) vcan1 301#8004000000000000
(1591372022.687551) vcan1 300#0000
(1591372022.734303) vcan1 60A#03C36710
(1591372022.735320) vcan1 60B#05540C0380200186
(1591372022.735320) vcan1 60B#225863CC8020018C
(1591372022.735320) vcan1 60B#5F5F23CC80200192
(1591372022.735321) vcan1 60C#058CA33A0220E8
(1591372022.736293) vcan1 60C#228CA33A0220E8
(1591372022.736294) vcan1 60C#5F84A33A0220E8
(1591372022.736294) vcan1 60D#057D6FA170800A0C
(1591372022.736294) vcan1 301#7FFF000000000000
(1591372022.736295) vcan1 300#0000
(1591372022.737316) vcan1 60D#227C6FA170800A0C
(1591372022.737316) vcan1 60D#5F7D0FA170800A0C
(1591372022.786591) vcan1 301#8005000000000000
(1591372022.787607) vcan1 300#0000
(1591372022.804285) vcan1 60A#03C36910
(1591372022.805263) vcan1 60B#05540C0580202186
(1591372022.805263) vcan1 60B#225863CB801FE18C
(1591372022.805264) vcan1 60B#5F5F23CC80200192
(1591372022.806250) vcan1 60C#058CA33A0220E8
(1591372022.806250) vcan1 60C#228CA33A0220E8
(1591372022.806253) vcan1 60C#5F84A33A0220E8
(1591372022.806253) vcan1 60D#057D8FA170800A0C
(1591372022.806253) vcan1 60D#227C8FA170800A0C
(1591372022.807250) vcan1 60D#5F7D0FA170800A0C
(1591372022.836625) vcan1 301#8003000000000000
(1591372022.837636) vcan1 300#0000
(1591372022.879586) vcan1 60A#03C36B10
(1591372022.880603) vcan1 60B#05540C0680204186
(1591372022.880604) vcan1 60B#225863CB801FE188
(1591372022.880604) vcan1 60B#5F5F23CC80200192
(1591372022.880604) vcan1 60C#0584A33A0220E8
(1591372022.881623) vcan1 60C#228CA53A0220C8
(1591372022.881623) vcan1 60C#5F84A33A0220E8
(1591372022.881623) vcan1 60D#057DAFA170800A0C
(1591372022.881623) vcan1 60D#227CAFA170800A0C
(1591372022.882644) vcan1 60D#5F7D0FA170800A0C
(1591372022.886666) vcan1 301#8005000000000000
(1591372022.887686) vcan1 300#0000
(1591372022.936500) vcan1 301#8005000000000000
(1591372022.937537) vcan1 300#0000
(1591372022.949530) vcan1 60A#04C36D10
(1591372022.950547) vcan1 60B#05540C0880208185
(1591372022.950547) vcan1 60B#225863CB801FE18A
(1591372022.950547) vcan1 60B#35587B69801FE18D
(1591372022.950547) vcan1 60B#5F5F23CC80200192
(1591372022.951567) vcan1 60C#0584A33A0220E8
(1591372022.951568) vcan1 60C#228CA33A0220E8
(1591372022.951568) vcan1 60C#35A5278C8220A8
(1591372022.951568) vcan1 60C#5F84A33A0220E8
(1591372022.952588) vcan1 60D#057DAFA170800A0C
(1591372022.952589) vcan1 60D#227CAFA170800A0C
(1591372022.952589) vcan1 60D#357BCFA170800A0C
(1591372022.952589) vcan1 60D#5F7D0FA170800A0C
(1591372022.986877) vcan1 301#8003000000000000
(1591372022.987604) vcan1 300#0000
(1591372023.019596) vcan1 60A#04C36F10
(1591372023.020508) vcan1 60B#05540C0880208185
(1591372023.020509) vcan1 60B#225863CB801FE18C
(1591372023.020509) vcan1 60B#2158536E801F6184
(1591372023.020510) vcan1 60B#5F5F23CC80200192
(1591372023.021609) vcan1 60C#0584A33A0220E8
(1591372023.021609) vcan1 60C#228CA33A0220E8
(1591372023.021609) vcan1 60C#21AD717D0220C8
(1591372023.021610) vcan1 60C#5F84A33A0220E8
(1591372023.021610) vcan1 60D#057DAFA170800A0C
(1591372023.022743) vcan1 60D#227CEFA170800A0C
(1591372023.022743) vcan1 60D#217AAFA170800A0C
(1591372023.022744) vcan1 60D#5F7D0FA170800A0C
(1591372023.036576) vcan1 301#8002000000000000
(1591372023.037589) vcan1 300#0000
(1591372023.086627) vcan1 301#8002000000000000
(1591372023.087624) vcan1 300#0000
(1591372023.094631) vcan1 60A#04C37110
(1591372023.095646) vcan1 60B#05540C0980208186
(1591372023.095646) vcan1 60B#225863CB801FE18B
(1591372023.095647) vcan1 60B#2158536E801F6184
(1591372023.095648) vcan1 60B#5F5F23CC80200192
(1591372023.096658) vcan1 60C#0584A33A0220E8
(1591372023.096659) vcan1 60C#228CA33A0220E8
(1591372023.096660) vcan1 60C#21B5B17D0220CC
(1591372023.096661) vcan1 60C#5F84A33A0220E8
(1591372023.096661) vcan1 60D#057D6FA170800A0C
(1591372023.097682) vcan1 60D#227D0FA170800A0C
(1591372023.097683) vcan1 60D#217AAFA170800A0C
(1591372023.097684) vcan1 60D#5F7D2FA170800A0C
(1591372023.136770) vcan1 301#8004000000000000
(1591372023.137781) vcan1 300#0000
(1591372023.164365) vcan1 60A#04C37310
(1591372023.165328) vcan1 60B#05540C0980208186
(1591372023.165329) vcan1 60B#0857F3BC7FE06181
(1591372023.165330) vcan1 60B#2158536D801F6186
(1591372023.165330) vcan1 60B#5F5F23CC80200192
(1591372023.166323) vcan1 60C#0584A33A0220E8
(1591372023.166334) vcan1 60C#08A56D8C8220C8
(1591372023.166335) vcan1 60C#21AD6F6C0220C8
(1591372023.166336) vcan1 60C#5F84A33A0220E8
(1591372023.167353) vcan1 60D#057D2FA170800A0C
(1591372023.167354) vcan1 60D#0874CFA170800A0C
(1591372023.167355) vcan1 60D#217AEFA170800A0C
(1591372023.167356) vcan1 60D#5F7D0FA170800A0C
(1591372023.186501) vcan1 301#8002000000000000
(1591372023.187516) vcan1 300#0000
(1591372023.236585) vcan1 301#8005000000000000
(1591372023.237583) vcan1 300#0000
(1591372023.239433) vcan1 60A#04C37510
(1591372023.240526) vcan1 60B#05540C0880206185
(1591372023.240527) vcan1 60B#0857F3BC7FE06181
(1591372023.240528) vcan1 60B#2158636B801F2188
(1591372023.240528) vcan1 60B#5F5F23CC80200192
(1591372023.241591) vcan1 60C#0584A33A0220E8
(1591372023.241592) vcan1 60C#08A56D8C8220CC
(1591372023.241593) vcan1 60C#21A52D6B8220C8
(1591372023.241594) vcan1 60C#5F84A33A0220E8
(1591372023.242610) vcan1 60D#057D4FA170800A0C
(1591372023.242611) vcan1 60D#0874CFA170800A0C
(1591372023.242612) vcan1 60D#217A2FA170800A0C
(1591372023.242612) vcan1 60D#5F7D0FA170800A0C
(1591372023.286842) vcan1 301#8003000000000000
(1591372023.287745) vcan1 300#0000
(1591372023.309690) vcan1 60A#04C37710
(1591372023.310681) vcan1 60B#05540C0880204184
(1591372023.310682) vcan1 60B#0857F3BC7FE06181
(1591372023.310683) vcan1 60B#21586B6A801F2189
(1591372023.310683) vcan1 60B#5F5F23CC80200192
(1591372023.311683) vcan1 60C#0584A33A0220E8
(1591372023.311683) vcan1 60C#08A56F8C8220CC
(1591372023.311684) vcan1 60C#219D296B0220E8
(1591372023.311685) vcan1 60C#5F84A33A0220E8
(1591372023.312741) vcan1 60D#057D4FA170800A0D
(1591372023.312742) vcan1 60D#0874CFA170800A0C
(1591372023.312743) vcan1 60D#21788FA170800A0C
(1591372023.312744) vcan1 60D#5F7CEFA170800A0C
(1591372023.336722) vcan1 301#8002000000000000
(1591372023.337708) vcan1 300#0000
(1591372023.364565) vcan1 201#401F400010340000
(1591372023.365598) vcan1 700#041E0100
(1591372023.379525) vcan1 60A#04C37910
(1591372023.380564) vcan1 60B#05540C0780204184
(1591372023.380565) vcan1 60B#0857F3BD7FE06181
(1591372023.380565) vcan1 60B#2158736A801F4189
(1591372023.380567) vcan1 60B#5F5F23CC80200192
(1591372023.381566) vcan1 60C#0584A33A0220E8
(1591372023.381567) vcan1 60C#08ADAF8C8220CC
(1591372023.381567) vcan1 60C#219D276A8220E8
(1591372023.381568) vcan1 60C#5F84A33A0220E8
(1591372023.382716) vcan1 60D#057D2FA170800A0C
(1591372023.382716) vcan1 60D#0874CFA170800A0C
(1591372023.382717) vcan1 60D#2176CFA170800A0C
(1591372023.382718) vcan1 60D#5F7D0FA170800A0C
(1591372023.386650) vcan1 301#8003000000000000
(1591372023.387500) vcan1 300#0000
(1591372023.436740) vcan1 301#8004000000000000
(1591372023.437652) vcan1 300#0000
(1591372023.454431) vcan1 60A#04C37B10
(1591372023.455417) vcan1 60B#05540C0780202184
(1591372023.455418) vcan1 60B#0857EBBD7FA06181
(1591372023.455419) vcan1 60B#21587B6B801F818A
(1591372023.455421) vcan1 60B#5F5F23CC80200192
(1591372023.456436) vcan1 60C#0584A33A0220E8
(1591372023.456438) vcan1 60C#08ADB18C8220AC
(1591372023.456438) vcan1 60C#219D255A8220E8
(1591372023.456439) vcan1 60C#5F84A33A0220E8
(1591372023.457456) vcan1 60D#057D4FA170800A0D
(1591372023.457457) vcan1 60D#0874CFA170800A0C
(1591372023.457458) vcan1 60D#2175AFA170800A0C
(1591372023.457459) vcan1 60D#5F7CEFA170800A0C
(1591372023.486633) vcan1 301#7FFE000000000000
(1591372023.487656) vcan1 300#0000
(1591372023.524379) vcan1 60A#04C37D10
(1591372023.525428) vcan1 60B#05540C0780202186
(1591372023.525430) vcan1 60B#0857EBBD7FA06181
(1591372023.525430) vcan1 60B#2158836B801F818A
(1591372023.525431) vcan1 60B#5F5F23CC80200192
(1591372023.526425) vcan1 60C#0584A33A0220E8
(1591372023.526427) vcan1 60C#08ADB18C8220AC
(1591372023.526427) vcan1 60C#2195255A8220E8
(1591372023.526429) vcan1 60C#5F84A33A0220E8
(1591372023.527520) vcan1 60D#057D6FA170800A0D
(1591372023.527521) vcan1 60D#0874CFA170800A0C
(1591372023.527522) vcan1 60D#21758FA170800A0C
(1591372023.527523) vcan1 60D#5F7D0FA170800A0C
(1591372023.536649) vcan1 301#8002000000000000
(1591372023.537673) vcan1 300#0000
(1591372023.586628) vcan1 301#8000000000000000
(1591372023.587556) vcan1 300#0000
(1591372023.599684) vcan1 60A#04C37F10
(1591372023.600715) vcan1 60B#05540C0680200186
(1591372023.600716) vcan1 60B#0857EBBE7FA06181
(1591372023.600716) vcan1 60B#21587B6A801F818A
(1591372023.600716) vcan1 60B#5F5F23CC80200192
(1591372023.601533) vcan1 60C#0584A33A0220E8
(1591372023.601534) vcan1 60C#08B5F18C8220AC
(1591372023.601534) vcan1 60C#2195255A8220E8
(1591372023.601534) vcan1 60C#5F84A33A0220E8
(1591372023.602548) vcan1 60D#057D6FA170800A0D
(1591372023.602549) vcan1 60D#0874CFA170800A0C
(1591372023.602549) vcan1 60D#21764FA170800A0C
(1591372023.602550) vcan1 60D#5F7D0FA170800A0C
(1591372023.636679) vcan1 301#8005000000000000
(1591372023.637670) vcan1 300#0000
(1591372023.669358) vcan1 60A#04C38110
(1591372023.670377) vcan1 60B#05540C0680200186
(1591372023.670378) vcan1 60B#0857EBBE7FA06181
(1591372023.671490) vcan1 60B#21587B69801F6189
(1591372023.671491) vcan1 60B#5F5F23CC80200192
(1591372023.671491) vcan1 60C#0584A33A0220CC
(1591372023.671492) vcan1 60C#08B5F18C8220AC
(1591372023.671493) vcan1 60C#2194E55A8220E8
(1591372023.672399) vcan1 60C#5F84A33A0220E8
(1591372023.672400) vcan1 60D#057D6FA170800A0D
(1591372023.672400) vcan1 60D#0874CFA170800A0C
(1591372023.672402) vcan1 60D#21772FA170800A0C
(1591372023.673374) vcan1 60D#5F7CEFA170800A0C
(1591372023.686591) vcan1 301#7FFF000000000000
(1591372023.687530) vcan1 300#0000
(1591372023.736658) vcan1 301#8000000000000000
(1591372023.737669) vcan1 300#0000
(1591372023.739437) vcan1 60A#04C38310
(1591372023.740439) vcan1 60B#05540C0680200186
(1591372023.740440) vcan1 60B#0857F3BF7FE08184
(1591372023.741462) vcan1 60B#21587B69801F6189
(1591372023.741464) vcan1 60B#5F5F23CC80200192
(1591372023.741465) vcan1 60C#0584A53A8220CC
(1591372023.741465) vcan1 60C#08B5F17C8220A8
(1591372023.741466) vcan1 60C#2195255A8220CC
(1591372023.742462) vcan1 60C#5F84A33A0220E8
(1591372023.742464) vcan1 60D#057D6FA170800A0D
(1591372023.742465) vcan1 60D#0877CFA170800A0C
(1591372023.742466) vcan1 60D#21772FA170800A0C
(1591372023.743481) vcan1 60D#5F7CEFA170800A0C
(1591372023.786500) vcan1 301#8002000000000000
(1591372023.787513) vcan1 300#0000
(1591372023.814298) vcan1 60A#04C38510
(1591372023.815526) vcan1 60B#05540C0680200186
(1591372023.815526) vcan1 60B#0857F3BF7FA08184
(1591372023.816275) vcan1 60B#21587B69801F818A
(1591372023.816275) vcan1 60B#5F5F23CC80200192
(1591372023.816275) vcan1 60C#0584A53A0220E8
(1591372023.816275) vcan1 60C#08BDF17C8220AC
(1591372023.816279) vcan1 60C#2195255A8220E8
(1591372023.817585) vcan1 60C#5F84A33A0220E8
(1591372023.817585) vcan1 60D#057D4FA170800A0C
(1591372023.817586) vcan1 60D#0877CFA170800A0C
(1591372023.817586) vcan1 60D#2178EFA170800A0C
(1591372023.818410) vcan1 60D#5F7CEFA170800A0C
(1591372023.836854) vcan1 301#8004000000000000
(1591372023.837793) vcan1 300#0000
(1591372023.884495) vcan1 60A#03C38710
(1591372023.885499) vcan1 60B#0554040680200186
(1591372023.885499) vcan1 60B#21587B68801F618A
(1591372023.885500) vcan1 60B#5F5F23CC80200193
(1591372023.886624) vcan1 60C#0584A33A0220E8
(1591372023.886625) vcan1 60C#2195255A8220E8
(1591372023.886626) vcan1 60C#5F84A33A0220E8
(1591372023.886627) vcan1 301#8002000000000000
(1591372023.886627) vcan1 300#0000
(1591372023.887520) vcan1 60D#057D4FA170800A0C
(1591372023.887521) vcan1 60D#2179EFA170800A0C
(1591372023.887521) vcan1 60D#5F7CEFA170800A0C
(1591372023.936692) vcan1 301#8001000000000000
(1591372023.937678) vcan1 300#0000
(1591372023.959538) vcan1 60A#03C38910
(1591372023.960536) vcan1 60B#05540C0780200186
(1591372023.960537) vcan1 60B#21587B68801F618A
(1591372023.960538) vcan1 60B#5F5F23CC80200192
(1591372023.961575) vcan1 60C#0584A33A0220E8
(1591372023.961577) vcan1 60C#2194E55A8220E8
(1591372023.961577) vcan1 60C#5F84A33A0220E8
(1591372023.961578) vcan1 60D#057D4FA170800A0C
(1591372023.962574) vcan1 60D#217ACFA170800A0C
(1591372023.962576) vcan1 60D#5F7D0FA170800A0C
(1591372023.986672) vcan1 301#8002000000000000
(1591372023.987627) vcan1 300#0000
(1591372024.029515) vcan1 60A#03C38B10
(1591372024.030609) vcan1 60B#05540C0880202185
(1591372024.030609) vcan1 60B#21587B68801F818A
(1591372024.031623) vcan1 60B#5F5F23CC80200192
(1591372024.031624) vcan1 60C#0584A33A0220E8
(1591372024.031624) vcan1 60C#2194E54A0220E8
(1591372024.031624) vcan1 60C#5F84A33A0220E8
(1591372024.032621) vcan1 60D#057D2FA170800A0C
(1591372024.032622) vcan1 60D#217BAFA170800A0C
(1591372024.032622) vcan1 60D#5F7CEFA170800A0C
(1591372024.036517) vcan1 301#8005000000000000
(1591372024.037540) vcan1 300#0000
(1591372024.086741) vcan1 301#7FFF000000000000
(1591372024.087747) vcan1 300#0000
(1591372024.099862) vcan1 60A#04C38D10
(1591372024.100881) vcan1 60B#05540C0780202186
(1591372024.100882) vcan1 60B#085813C27FE0A187
(1591372024.101863) vcan1 60B#21587B68801F818A
(1591372024.101864) vcan1 60B#5F5F23CC80200192
(1591372024.101865) vcan1 60C#0584A33A0220E8
(1591372024.101866) vcan1 60C#08B5B16C8220C8
(1591372024.101866) vcan1 60C#2195254A8220C8
(1591372024.102866) vcan1 60C#5F84A33A0220E8
(1591372024.102869) vcan1 60D#057D0FA170800A0C
(1591372024.102870) vcan1 60D#085CAFA170800A0C
(1591372024.102871) vcan1 60D#217BCFA170800A0C
(1591372024.103924) vcan1 60D#5F7CEFA170800A0C
(1591372024.136721) vcan1 301#8004000000000000
(1591372024.137717) vcan1 300#0000
(1591372024.174315) vcan1 60A#04C38F10
(1591372024.175310) vcan1 60B#05540C0880202186
(1591372024.175311) vcan1 60B#085823C37FE0A188
(1591372024.176343) vcan1 60B#21587367801F8189
(1591372024.176344) vcan1 60B#5F5F23CC80200192
(1591372024.176345) vcan1 60C#0584A33A0220E8
(1591372024.176346) vcan1 60C#08B5AF6C0220C8
(1591372024.176347) vcan1 60C#2194E54A0220E8
(1591372024.177343) vcan1 60C#5F84A33A0220E8
(1591372024.177345) vcan1 60D#057D0FA170800A0C
(1591372024.177358) vcan1 60D#084E6FA170800A0C
(1591372024.177358) vcan1 60D#217C6FA170800A0C
(1591372024.178361) vcan1 60D#5F7CEFA170800A0C
(1591372024.186577) vcan1 301#8002000000000000
(1591372024.187569) vcan1 300#0000
(1591372024.236608) vcan1 301#8006000000000000
(1591372024.237563) vcan1 300#0000
(1591372024.244319) vcan1 60A#04C39110
(1591372024.245382) vcan1 60B#0554040780200184
(1591372024.246409) vcan1 60B#08585BC980212188
(1591372024.246410) vcan1 60B#21587367801F8189
(1591372024.246411) vcan1 60B#5F5F23CC80200192
(1591372024.246412) vcan1 60C#0584A33A0220E8
(1591372024.246412) vcan1 60C#08AD6D5C0220E8
(1591372024.247405) vcan1 60C#2194E54A0220E8
(1591372024.247406) vcan1 60C#5F84A33A0220E8
(1591372024.247407) vcan1 60D#057CEFA170800A0C
(1591372024.247408) vcan1 60D#081FEFA170800A0C
(1591372024.248443) vcan1 60D#217CCFA170800A0C
(1591372024.248444) vcan1 60D#5F7CEFA170800A0C
(1591372024.286449) vcan1 301#8003000000000000
(1591372024.287463) vcan1 300#0000
(1591372024.319588) vcan1 60A#04C39310
(1591372024.320583) vcan1 60B#0554040680200185
(1591372024.320584) vcan1 60B#085873CA80212189
(1591372024.321471) vcan1 60B#21587367801F8189
(1591372024.321472) vcan1 60B#5F5F23CC80200192
(1591372024.321473) vcan1 60C#0584A33A0220E8
(1591372024.321474) vcan1 60C#08A5295B8220E8
(1591372024.322498) vcan1 60C#2195254A8220CC
(1591372024.322499) vcan1 60C#5F84A33A0220E8
(1591372024.322500) vcan1 60D#057CEFA170800A0C
(1591372024.322501) vcan1 60D#08172FA170800A0C
(1591372024.322502) vcan1 60D#217CCFA170800A0C
(1591372024.323627) vcan1 60D#5F7CEFA170800A0C
(1591372024.336694) vcan1 301#8002000000000000
(1591372024.337637) vcan1 300#0000
(1591372024.365709) vcan1 201#401F400010340000
(1591372024.366727) vcan1 700#041E0100
(1591372024.386605) vcan1 301#8003000000000000
(1591372024.387620) vcan1 300#0000
(1591372024.389429) vcan1 60A#04C39510
(1591372024.390603) vcan1 60B#0554040680200185
(1591372024.390604) vcan1 60B#085873CB7FA12189
(1591372024.391518) vcan1 60B#21587367801FA189
(1591372024.391519) vcan1 60B#5F5F23CC80200192
(1591372024.391519) vcan1 60C#0584A53A0220CC
(1591372024.391520) vcan1 60C#08A52B5C0220CC
(1591372024.391521) vcan1 60C#2194E54A0220E8
(1591372024.392523) vcan1 60C#5F84A33A0220E8
(1591372024.392524) vcan1 60D#057CEFA170800A0C
(1591372024.392525) vcan1 60D#08172FA170800A0C
(1591372024.392525) vcan1 60D#217D6FA170800A0C
(1591372024.393526) vcan1 60D#5F7D0FA170800A0C
(1591372024.436640) vcan1 301#8002000000000000
(1591372024.437697) vcan1 300#0000
(1591372024.460620) vcan1 60A#04C39710
(1591372024.461614) vcan1 60B#0554040680200185
(1591372024.461615) vcan1 60B#085863C98020E188
(1591372024.461616) vcan1 60B#21586B67801FA18A
(1591372024.461617) vcan1 60B#5F5F23CC80200192
(1591372024.462641) vcan1 60C#0584A53A0220E8
(1591372024.462642) vcan1 60C#089D274C0220E8
(1591372024.462643) vcan1 60C#2194E34A0220E8
(1591372024.462644) vcan1 60C#5F84A33A0220E8
(1591372024.462645) vcan1 60D#057D0FA170800A0C
(1591372024.463655) vcan1 60D#08478FA170800A0C
(1591372024.463656) vcan1 60D#217DEFA170800A0C
(1591372024.463656) vcan1 60D#5F7D2FA170800A0C
(1591372024.486680) vcan1 301#8002000000000000
(1591372024.487675) vcan1 300#0000
(1591372024.535563) vcan1 60A#04C39910
(1591372024.536579) vcan1 60B#05540C0680200184
(1591372024.536589) vcan1 60B#08585BCB80210188
(1591372024.536590) vcan1 60B#21586B67801FA18A
(1591372024.536591) vcan1 60B#5F5F23CC80200192
(1591372024.537557) vcan1 60C#058CA53A0220E8
(1591372024.537558) vcan1 301#8002000000000000
(1591372024.537559) vcan1 300#0000
(1591372024.537559) vcan1 60C#089CE54C0220E8
(1591372024.537560) vcan1 60C#2194E54A0220E8
(1591372024.538569) vcan1 60C#5F84A33A0220E8
(1591372024.538570) vcan1 60D#057D6FA170800A0C
(1591372024.538570) vcan1 60D#085B4FA170800A0C
(1591372024.538571) vcan1 60D#217E0FA170800A0C
(1591372024.539543) vcan1 60D#5F7D0FA170800A0C
(1591372024.586459) vcan1 301#8003000000000000
(1591372024.587505) vcan1 300#0000
(1591372024.605786) vcan1 60A#03C39B10
(1591372024.606792) vcan1 60B#05540C0680200184
(1591372024.606793) vcan1 60B#085853CD80212187
(1591372024.606793) vcan1 60B#5F5F23CC80200192
(1591372024.606794) vcan1 60C#058CA53A0220CC
(1591372024.607788) vcan1 60C#0894E54B8220E8
(1591372024.607789) vcan1 60C#5F84A33A0220E8
(1591372024.607790) vcan1 60D#057D6FA170800A0C
(1591372024.607790) vcan1 60D#08760FA170800A0C
(1591372024.608805) vcan1 60D#5F7D0FA170800A0C
(1591372024.636782) vcan1 301#8005000000000000
(1591372024.637755) vcan1 300#0000
(1591372024.680602) vcan1 60A#03C39D10
(1591372024.681472) vcan1 60B#05540C0680200184
(1591372024.681473) vcan1 60B#085853CD80212188
(1591372024.681474) vcan1 60B#5F5F23CC80200192
(1591372024.681475) vcan1 60C#058CA53A0220E8
(1591372024.682464) vcan1 60C#0894E54B8220E8
(1591372024.682465) vcan1 60C#5F84A33A0220E8
(1591372024.682466) vcan1 60D#057D6FA170800A0C
(1591372024.682467) vcan1 60D#087A6FA170800A0C
(1591372024.683435) vcan1 60D#5F7CEFA170800A0C
(1591372024.686409) vcan1 301#8003000000000000
(1591372024.687544) vcan1 300#0000
(1591372024.736641) vcan1 301#8006000000000000
(1591372024.737577) vcan1 300#0000
(1591372024.750508) vcan1 60A#03C39F10
(1591372024.751458) vcan1 60B#05540C05801FE184
(1591372024.751460) vcan1 60B#085853CE80212185
(1591372024.751461) vcan1 60B#5F5F23CC80200192
(1591372024.751463) vcan1 60C#058CA33A0220E8
(1591372024.752543) vcan1 60C#0894E74B0220C8
(1591372024.752543) vcan1 60C#5F84A33A0220E8
(1591372024.752545) vcan1 60D#057CCFA170800A0C
(1591372024.752546) vcan1 60D#087ACFA170800A0C
(1591372024.753542) vcan1 60D#5F7CEFA170800A0C
(1591372024.786676) vcan1 301#8001000000000000
(1591372024.787734) vcan1 300#0000
(1591372024.820359) vcan1 60A#03C3A110
