(1710924031.499000) vcan0 60A#002F2F10
(1710924031.579000) vcan0 60A#002F3110
(1710924031.658000) vcan0 60A#002F3310
(1710924031.737000) vcan0 60A#002F3510
(1710924031.799000) vcan0 60A#002F3710
(1710924031.879000) vcan0 60A#002F3910
(1710924031.958000) vcan0 60A#002F3B10
(1710924032.021000) vcan0 60A#002F3D10
(1710924032.101000) vcan0 60A#002F3F10
(1710924032.164000) vcan0 60A#002F4110
(1710924032.244000) vcan0 60A#002F4310
(1710924032.324000) vcan0 60A#002F4510
(1710924032.403000) vcan0 60A#002F4710
(1710924032.435000) vcan0 201#4020800010F40000
(1710924032.435000) vcan0 700#041E0200
(1710924032.466000) vcan0 60A#002F4910
(1710924032.543000) vcan0 60A#002F4B10
(1710924032.621000) vcan0 60A#002F4D10
(1710924032.683000) vcan0 60A#002F4F10
(1710924032.763000) vcan0 60A#002F5110
(1710924032.841000) vcan0 60A#002F5310
(1710924032.919000) vcan0 60A#002F5510
(1710924032.981000) vcan0 60A#002F5710
(1710924033.059000) vcan0 60A#002F5910
(1710924033.137000) vcan0 60A#002F5B10
(1710924033.216000) vcan0 60A#002F5D10
(1710924033.294000) vcan0 60A#002F5F10
(1710924033.372000) vcan0 60A#002F6110
(1710924033.434000) vcan0 60A#002F6310
(1710924033.434000) vcan0 201#4020800010F40000
(1710924033.434000) vcan0 700#041E0200
(1710924033.512000) vcan0 60A#002F6510
(1710924033.588000) vcan0 60A#002F6710
(1710924033.665000) vcan0 60A#002F6910
(1710924033.743000) vcan0 60A#002F6B10
(1710924033.805000) vcan0 60A#002F6D10
(1710924033.884000) vcan0 60A#002F6F10
(1710924033.962000) vcan0 60A#002F7110
(1710924034.025000) vcan0 60A#002F7310
(1710924034.103000) vcan0 60A#002F7510
(1710924034.181000) vcan0 60A#002F7710
(1710924034.259000) vcan0 60A#002F7910
(1710924034.337000) vcan0 60A#002F7B10
(1710924034.399000) vcan0 60A#002F7D10
(1710924034.430000) vcan0 201#4020800010F40000
(1710924034.430000) vcan0 700#041E0200
(1710924034.476000) vcan0 60A#002F7F10
(1710924034.555000) vcan0 60A#002F8110
(1710924034.632000) vcan0 60A#002F8310
(1710924034.694000) vcan0 60A#002F8510
(1710924034.772000) vcan0 60A#002F8710
(1710924034.852000) vcan0 60A#002F8910
(1710924034.929000) vcan0 60A#002F8B10
(1710924035.006000) vcan0 60A#002F8D10
(1710924035.069000) vcan0 60A#002F8F10
(1710924035.147000) vcan0 60A#002F9110
(1710924035.226000) vcan0 60A#002F9310
(1710924035.290000) vcan0 60A#002F9510
(1710924035.367000) vcan0 60A#002F9710
(1710924035.429000) vcan0 201#4020800010F40000
(1710924035.429000) vcan0 700#041E0200
(1710924035.444000) vcan0 60A#002F9910
(1710924035.520000) vcan0 60A#002F9B10
(1710924035.598000) vcan0 60A#002F9D10
(1710924035.676000) vcan0 60A#002F9F10
(1710924035.739000) vcan0 60A#002FA110
(1710924035.818000) vcan0 60A#002FA310
(1710924035.895000) vcan0 60A#002FA510
(1710924035.973000) vcan0 60A#002FA710
(1710924036.035000) vcan0 60A#002FA910
(1710924036.113000) vcan0 60A#002FAB10
(1710924036.191000) vcan0 60A#002FAD10
(1710924036.268000) vcan0 60A#002FAF10
(1710924036.330000) vcan0 60A#002FB110
(1710924036.407000) vcan0 60A#002FB310
(1710924036.439000) vcan0 201#4020800010F40000
(1710924036.439000) vcan0 700#041E0200
(1710924036.486000) vcan0 60A#002FB510
(1710924036.562000) vcan0 60A#002FB710
(1710924036.640000) vcan0 60A#002FB910
(1710924036.703000) vcan0 60A#002FBB10
(1710924036.781000) vcan0 60A#002FBD10
(1710924036.860000) vcan0 60A#002FBF10
(1710924036.939000) vcan0 60A#002FC110
(1710924037.000000) vcan0 60A#002FC310
(1710924037.078000) vcan0 60A#002FC510
(1710924037.157000) vcan0 60A#002FC710
(1710924037.219000) vcan0 60A#002FC910
(1710924037.296000) vcan0 60A#002FCB10
(1710924037.374000) vcan0 60A#002FCD10
(1710924037.436000) vcan0 201#4020800010F40000
(1710924037.436000) vcan0 700#041E0200
(1710924037.451000) vcan0 60A#002FCF10
(1710924037.528000) vcan0 60A#002FD110
(1710924037.589000) vcan0 60A#002FD310
(1710924037.669000) vcan0 60A#002FD510
(1710924037.746000) vcan0 60A#002FD710
(1710924037.824000) vcan0 60A#002FD910
(1710924037.900000) vcan0 60A#002FDB10
(1710924037.978000) vcan0 60A#002FDD10
(1710924038.040000) vcan0 60A#002FDF10
(1710924038.118000) vcan0 60A#002FE110
(1710924038.196000) vcan0 60A#002FE310
(1710924038.274000) vcan0 60A#002FE510
(1710924038.337000) vcan0 60A#002FE710
(1710924038.416000) vcan0 60A#002FE910
(1710924038.447000) vcan0 201#4020800010F40000
(1710924038.447000) vcan0 700#041E0200
(1710924038.494000) vcan0 60A#002FEB10
(1710924038.571000) vcan0 60A#002FED10
(1710924038.648000) vcan0 60A#002FEF10
(1710924038.710000) vcan0 60A#012FF110
(1710924038.710000) vcan0 60B#074F53DE80A06177
(1710924038.710000) vcan0 60C#079CE78D0220A8
(1710924038.710000) vcan0 60D#07512FA070800505
(1710924038.788000) vcan0 60A#022FF310
(1710924038.788000) vcan0 60B#044E3BFD80E00164
(1710924038.788000) vcan0 60B#074F53DF8060A173
(1710924038.788000) vcan0 60C#04A52B8D022068
(1710924038.788000) vcan0 60C#079D297C8220A8
(1710924038.789000) vcan0 60D#048E2FA070800505
(1710924038.789000) vcan0 60D#075E2FA070800505
(1710924038.866000) vcan0 60A#022FF510
(1710924038.866000) vcan0 60B#044E3BFD80E00160
(1710924038.866000) vcan0 60B#074F53DF8060A170
(1710924038.866000) vcan0 60C#04A52D7D022068
(1710924038.866000) vcan0 60C#079D2B7C8220A8
(1710924038.866000) vcan0 60D#048D4FA070800505
(1710924038.866000) vcan0 60D#0762EFA070800505
(1710924038.928000) vcan0 60A#012FF710
(1710924038.928000) vcan0 60B#044E3BFD8120215E
(1710924038.928000) vcan0 60C#04A52D7D022068
(1710924038.928000) vcan0 60D#0491EFA070800505
(1710924039.020000) vcan0 60A#012FF910
(1710924039.020000) vcan0 60B#044E43FE8160215A
(1710924039.020000) vcan0 60C#04A52F7C822048
(1710924039.020000) vcan0 60D#04968FA070800505
(1710924039.082000) vcan0 60A#022FFB10
(1710924039.082000) vcan0 60B#044E43FE8160215B
(1710924039.082000) vcan0 60B#074F53E17FE0A170
(1710924039.097000) vcan0 60C#04A56F7C822048
(1710924039.097000) vcan0 60C#07A5AF7C82208C
(1710924039.097000) vcan0 60D#04940FA070800505
(1710924039.097000) vcan0 60D#0762EFA070800505
(1710924039.160000) vcan0 60A#022FFD10
(1710924039.160000) vcan0 60B#044E4BFE81602158
(1710924039.160000) vcan0 60B#074F53E17FA0A170
(1710924039.160000) vcan0 60C#04A56F7C822048
(1710924039.160000) vcan0 60C#07ADB17C82206C
(1710924039.160000) vcan0 60D#0491EFA070800505
(1710924039.160000) vcan0 60D#0762EFA070800505
(1710924039.237000) vcan0 60A#022FFF10
(1710924039.237000) vcan0 60B#044E4BFE8120415E
(1710924039.237000) vcan0 60B#074F53E27FA0A170
(1710924039.237000) vcan0 60C#04A52D6C022068
(1710924039.237000) vcan0 60C#07ADB17C82206C
(1710924039.237000) vcan0 60D#0486CFA070800505
(1710924039.237000) vcan0 60D#0762EFA070800505
(1710924039.314000) vcan0 60A#02300110
(1710924039.314000) vcan0 60B#044E4BFE81204160
(1710924039.314000) vcan0 60B#074F53E27F60A170
(1710924039.314000) vcan0 60C#04A52D6C022068
(1710924039.314000) vcan0 60C#07B5B17C82204C
(1710924039.314000) vcan0 60D#04868FA070800505
(1710924039.314000) vcan0 60D#0762EFA070800505
(1710924039.393000) vcan0 60A#02300310
(1710924039.393000) vcan0 60B#044E53FF81204160
(1710924039.393000) vcan0 60B#074F4BE37F60A170
(1710924039.393000) vcan0 60C#04A52D5C022068
(1710924039.393000) vcan0 60C#07B5F17C82204C
(1710924039.393000) vcan0 60D#04846FA070800505
(1710924039.393000) vcan0 60D#0762EFA070800505
(1710924039.439000) vcan0 201#4020800010F40000
(1710924039.439000) vcan0 700#041E0200
(1710924039.470000) vcan0 60A#01300510
(1710924039.470000) vcan0 60B#044E53FF81204161
(1710924039.470000) vcan0 60C#04A52D5C022048
(1710924039.470000) vcan0 60D#04848FA070800505
(1710924039.532000) vcan0 60A#01300710
(1710924039.532000) vcan0 60B#044E53FF81202161
(1710924039.532000) vcan0 60C#049CED5C022048
(1710924039.532000) vcan0 60D#0484AFA070800505
(1710924039.609000) vcan0 60A#01300910
(1710924039.609000) vcan0 60B#044E5BFE81602161
(1710924039.609000) vcan0 60C#049CEB4B822068
(1710924039.609000) vcan0 60D#048A2FA070800505
(1710924039.687000) vcan0 60A#00300B10
(1710924039.763000) vcan0 60A#00300D10
(1710924039.825000) vcan0 60A#00300F10
(1710924039.902000) vcan0 60A#00301110
(1710924039.979000) vcan0 60A#00301310
(1710924040.057000) vcan0 60A#00301510
(1710924040.135000) vcan0 60A#00301710
(1710924040.212000) vcan0 60A#00301910
(1710924040.274000) vcan0 60A#00301B10
(1710924040.351000) vcan0 60A#00301D10
(1710924040.428000) vcan0 60A#00301F10
(1710924040.443000) vcan0 201#4020800010F40000
(1710924040.443000) vcan0 700#041E0200
(1710924040.506000) vcan0 60A#00302110
(1710924040.582000) vcan0 60A#00302310
(1710924040.644000) vcan0 60A#00302510
(1710924040.723000) vcan0 60A#01302710
(1710924040.723000) vcan0 60B#044E8BFE81202069
(1710924040.723000) vcan0 60C#048C653A8220E8
(1710924040.723000) vcan0 60D#047F0FA070800303
(1710924040.800000) vcan0 60A#00302910
(1710924040.876000) vcan0 60A#00302B10
(1710924040.939000) vcan0 60A#00302D10
(1710924041.032000) vcan0 60A#00302F10
(1710924041.095000) vcan0 60A#00303110
(1710924041.172000) vcan0 60A#00303310
(1710924041.249000) vcan0 60A#00303510
(1710924041.312000) vcan0 60A#01303710
(1710924041.312000) vcan0 60B#044EA3FE80E0006E
(1710924041.312000) vcan0 60C#048CA73A8220C8
(1710924041.312000) vcan0 60D#04780FA470800808
(1710924041.390000) vcan0 60A#00303910
(1710924041.437000) vcan0 201#4020800010F40000
(1710924041.437000) vcan0 700#041E0200
(1710924041.468000) vcan0 60A#00303B10
(1710924041.544000) vcan0 60A#00303D10
(1710924041.621000) vcan0 60A#00303F10
(1710924041.684000) vcan0 60A#00304110
(1710924041.762000) vcan0 60A#00304310
(1710924041.839000) vcan0 60A#00304510
(1710924041.917000) vcan0 60A#00304710
(1710924041.978000) vcan0 60A#00304910
(1710924042.055000) vcan0 60A#00304B10
(1710924042.134000) vcan0 60A#00304D10
(1710924042.212000) vcan0 60A#01304F10
(1710924042.212000) vcan0 60B#044EBBFE80DFE672
(1710924042.212000) vcan0 60C#048CA53A8220E8
(1710924042.212000) vcan0 60D#04818FA470800808
(1710924042.289000) vcan0 60A#01305110
(1710924042.290000) vcan0 60B#044EC3FD80DFE671
(1710924042.290000) vcan0 60C#048CA53A8220E8
(1710924042.290000) vcan0 60D#0481AFA470800808
(1710924042.367000) vcan0 60A#01305310
(1710924042.367000) vcan0 60B#044EC3FD811FE66F
(1710924042.367000) vcan0 60C#048CA53A8220E8
(1710924042.367000) vcan0 60D#04852FA470800808
(1710924042.428000) vcan0 60A#01305510
(1710924042.428000) vcan0 60B#044EC3FD811FE66D
(1710924042.428000) vcan0 60C#048CA53A8220E8
(1710924042.428000) vcan0 60D#0485EFA470800808
(1710924042.444000) vcan0 201#4020800010F40000
(1710924042.444000) vcan0 700#041E0200
(1710924042.507000) vcan0 60A#01305710
(1710924042.507000) vcan0 60B#044ECBFD811FE66D
(1710924042.507000) vcan0 60C#048CA53A8220E8
(1710924042.507000) vcan0 60D#0484CFA470800808
(1710924042.585000) vcan0 60A#01305910
(1710924042.585000) vcan0 60B#044ECBFD811FE66D
(1710924042.585000) vcan0 60C#048CA53A8220E8
(1710924042.585000) vcan0 60D#04828FA470800808
(1710924042.662000) vcan0 60A#01305B10
(1710924042.662000) vcan0 60B#044ED3FD811FE66E
(1710924042.662000) vcan0 60C#048CA53A8220E8
(1710924042.662000) vcan0 60D#0481AFA470800808
(1710924042.738000) vcan0 60A#01305D10
(1710924042.738000) vcan0 60B#044ED3FD80DFE66E
(1710924042.738000) vcan0 60C#048CA53A8220E8
(1710924042.738000) vcan0 60D#047BCFA470800808
(1710924042.815000) vcan0 60A#01305F10
(1710924042.815000) vcan0 60B#044ED3FC80DFE670
(1710924042.815000) vcan0 60C#048CA33A8220E8
(1710924042.815000) vcan0 60D#04766FA470800808
(1710924042.876000) vcan0 60A#01306110
(1710924042.876000) vcan0 60B#044EDBFC80DFC66D
(1710924042.876000) vcan0 60C#048CA33A8220E8
(1710924042.876000) vcan0 60D#0476EFA470800808
(1710924042.953000) vcan0 60A#01306310
(1710924042.953000) vcan0 60B#044EDBFC80DFE66E
(1710924042.953000) vcan0 60C#048CA33A8220E8
(1710924042.953000) vcan0 60D#047A4FA470800808
(1710924043.032000) vcan0 60A#01306510
(1710924043.032000) vcan0 60B#044EDBFC80DFE66E
(1710924043.032000) vcan0 60C#048CA53A8220E8
(1710924043.032000) vcan0 60D#047A6FA470800808
(1710924043.112000) vcan0 60A#01306710
(1710924043.112000) vcan0 60B#044EDBFC80DFE66D
(1710924043.112000) vcan0 60C#048CA53A8220E8
(1710924043.112000) vcan0 60D#047D2FA470800808
(1710924043.175000) vcan0 60A#01306910
(1710924043.175000) vcan0 60B#044EE3FC80DFE66E
(1710924043.175000) vcan0 60C#048CA33A8220E8
(1710924043.175000) vcan0 60D#0479CFA470800808
(1710924043.252000) vcan0 60A#01306B10
(1710924043.252000) vcan0 60B#044EE3FB80DFE66C
(1710924043.252000) vcan0 60C#048CA53A8220E8
(1710924043.252000) vcan0 60D#0479CFA470800808
(1710924043.330000) vcan0 60A#01306D10
(1710924043.330000) vcan0 60B#044EE3FB809FE66B
(1710924043.330000) vcan0 60C#048CA53A8220E8
(1710924043.330000) vcan0 60D#0477CFA470800808
(1710924043.408000) vcan0 60A#01306F10
(1710924043.408000) vcan0 60B#044EEBFB809FE66C
(1710924043.408000) vcan0 60C#048CA33A8220E8
(1710924043.408000) vcan0 60D#04780FA470800808
(1710924043.439000) vcan0 201#4020800010F40000
(1710924043.439000) vcan0 700#041E0200
(1710924043.485000) vcan0 60A#01307110
(1710924043.485000) vcan0 60B#044EEBFB809FE66B
(1710924043.485000) vcan0 60C#048CA33A8220E8
(1710924043.485000) vcan0 60D#0476AFA470800808
(1710924043.547000) vcan0 60A#01307310
(1710924043.547000) vcan0 60B#044EEBFB809FE66C
(1710924043.547000) vcan0 60C#048CA33A8220E8
(1710924043.547000) vcan0 60D#0477CFA470800808
(1710924043.625000) vcan0 60A#01307510
(1710924043.625000) vcan0 60B#044EEBFB809FE66B
(1710924043.625000) vcan0 60C#048C633A0220E8
(1710924043.625000) vcan0 60D#047B6FA470800808
(1710924043.704000) vcan0 60A#01307710
(1710924043.704000) vcan0 60B#044EF3FB809FE669
(1710924043.704000) vcan0 60C#048CA33A0220E8
(1710924043.704000) vcan0 60D#047C4FA470800808
(1710924043.781000) vcan0 60A#01307910
(1710924043.781000) vcan0 60B#044EF3FB809FE66A
(1710924043.781000) vcan0 60C#048CA53A8220C8
(1710924043.781000) vcan0 60D#047AEFA470800808
(1710924043.843000) vcan0 60A#01307B10
(1710924043.843000) vcan0 60B#044EF3FB809FE66B
(1710924043.843000) vcan0 60C#048CA53A8220C8
(1710924043.843000) vcan0 60D#04794FA470800808
(1710924043.920000) vcan0 60A#01307D10
(1710924043.920000) vcan0 60B#044EF3FB805FE66F
(1710924043.920000) vcan0 60C#048CA53A8220E8
(1710924043.920000) vcan0 60D#0475CFA470800808
(1710924043.999000) vcan0 60A#01307F10
(1710924043.999000) vcan0 60B#044EF3FB805FE66F
(1710924043.999000) vcan0 60C#048CA53A8220CC
(1710924043.999000) vcan0 60D#0475CFA470800808
(1710924044.075000) vcan0 60A#01308110
(1710924044.075000) vcan0 60B#044EFBFB805FE66F
(1710924044.075000) vcan0 60C#048CA73A8220CC
(1710924044.075000) vcan0 60D#0475CFA470800808
(1710924044.153000) vcan0 60A#01308310
(1710924044.153000) vcan0 60B#044EFBFB805FE66F
(1710924044.153000) vcan0 60C#048CA73A8220AC
(1710924044.153000) vcan0 60D#0475CFA470800808
(1710924044.231000) vcan0 60A#00308510
(1710924044.293000) vcan0 60A#00308710
(1710924044.371000) vcan0 60A#00308910
(1710924044.449000) vcan0 201#4020800010F40000
(1710924044.449000) vcan0 700#041E0200
(1710924044.449000) vcan0 60A#00308B10
(1710924044.510000) vcan0 60A#01308D10
(1710924044.526000) vcan0 60B#044EF3FC7FA0266A
(1710924044.526000) vcan0 60C#048CE53A0220C8
(1710924044.526000) vcan0 60D#046AEFA470800808
(1710924044.588000) vcan0 60A#01308F10
(1710924044.588000) vcan0 60B#044EF3FD7FA0266B
(1710924044.588000) vcan0 60C#048CA53A0220C8
(1710924044.588000) vcan0 60D#046DCFA470800808
(1710924044.665000) vcan0 60A#01309110
(1710924044.665000) vcan0 60B#044EF3FD7FA0266D
(1710924044.665000) vcan0 60C#048CA33A8220E8
(1710924044.665000) vcan0 60D#04714FA470800808
(1710924044.742000) vcan0 60A#01309310
(1710924044.742000) vcan0 60B#044EF3FD7FA0266F
(1710924044.742000) vcan0 60C#048CA33A8220E8
(1710924044.742000) vcan0 60D#0470EFA470800808
(1710924044.821000) vcan0 60A#01309510
(1710924044.821000) vcan0 60B#044EF3FE7F602672
(1710924044.821000) vcan0 60C#048CA53A8220E8
(1710924044.821000) vcan0 60D#0470AFA470800808
(1710924044.883000) vcan0 60A#01309710
(1710924044.883000) vcan0 60B#044EEBFE7F602671
(1710924044.883000) vcan0 60C#048CA33A8220E8
(1710924044.883000) vcan0 60D#0471CFA470800808
(1710924044.960000) vcan0 60A#01309910
(1710924044.960000) vcan0 60B#044EEBFE7F602670
(1710924044.960000) vcan0 60C#048CA33A8220E8
(1710924044.960000) vcan0 60D#04750FA470800808
(1710924045.037000) vcan0 60A#01309B10
(1710924045.037000) vcan0 60B#044EEBFE7F602670
(1710924045.037000) vcan0 60C#048CA33A8220E8
(1710924045.037000) vcan0 60D#04778FA470800808
(1710924045.114000) vcan0 60A#01309D10
(1710924045.114000) vcan0 60B#044EEBFE7F602671
(1710924045.114000) vcan0 60C#048CA53A8220E8
(1710924045.114000) vcan0 60D#04778FA470800808
(1710924045.193000) vcan0 60A#01309F10
(1710924045.193000) vcan0 60B#044EEBFE7FA02672
(1710924045.193000) vcan0 60C#048CA53A8220E8
(1710924045.193000) vcan0 60D#047CAFA470800808
(1710924045.270000) vcan0 60A#0130A110
(1710924045.270000) vcan0 60B#044EEBFF7FA02671
(1710924045.270000) vcan0 60C#048CA53A8220E8
(1710924045.270000) vcan0 60D#047F2FA470800808
(1710924045.348000) vcan0 60A#0130A310
(1710924045.348000) vcan0 60B#044EEBFF7FA04670
(1710924045.348000) vcan0 60C#048CA53A8220E8
(1710924045.348000) vcan0 60D#047EAFA470800808
(1710924045.411000) vcan0 60A#0130A510
(1710924045.411000) vcan0 60B#044EE3FF7FA04671
(1710924045.411000) vcan0 60C#048CA33A8220E8
(1710924045.411000) vcan0 60D#047FCFA470800808
(1710924045.441000) vcan0 201#4020800010F40000
(1710924045.441000) vcan0 700#041E0200
(1710924045.487000) vcan0 60A#0130A710
(1710924045.487000) vcan0 60B#044EE3FF7FE04673
(1710924045.487000) vcan0 60C#048CA33A8220E8
(1710924045.487000) vcan0 60D#0483EFA470800808
(1710924045.565000) vcan0 60A#0130A910
(1710924045.565000) vcan0 60B#044EE3FF7FE04677
(1710924045.565000) vcan0 60C#048CA33A0220E8
(1710924045.565000) vcan0 60D#04862FA470800808
(1710924045.628000) vcan0 60A#0130AB10
(1710924045.628000) vcan0 60B#044EE4007FE04676
(1710924045.643000) vcan0 60C#048CA33A0220E8
(1710924045.643000) vcan0 60D#0483AFA470800808
(1710924045.704000) vcan0 60A#0130AD10
(1710924045.704000) vcan0 60B#044EE4007FE04679
(1710924045.704000) vcan0 60C#048CA33A0220E8
(1710924045.704000) vcan0 60D#04842FA470800808
(1710924045.783000) vcan0 60A#0130AF10
(1710924045.783000) vcan0 60B#044EE4007FE04676
(1710924045.783000) vcan0 60C#048CA53A0220E8
(1710924045.783000) vcan0 60D#04840FA470800808
(1710924045.861000) vcan0 60A#0130B110
(1710924045.861000) vcan0 60B#044EE4007FE04674
(1710924045.861000) vcan0 60C#048CA53A8220E8
(1710924045.861000) vcan0 60D#04828FA470800808
(1710924045.939000) vcan0 60A#0130B310
(1710924045.939000) vcan0 60B#044EE4007FE04675
(1710924045.939000) vcan0 60C#048CA53A0220E8
(1710924045.939000) vcan0 60D#047ECFA470800808
(1710924046.002000) vcan0 60A#0130B510
(1710924046.002000) vcan0 60B#044EE4017FE04677
(1710924046.002000) vcan0 60C#048CA53A0220E8
(1710924046.002000) vcan0 60D#047E0FA470800808
(1710924046.078000) vcan0 60A#0130B710
(1710924046.078000) vcan0 60B#044EE4017FE04679
(1710924046.078000) vcan0 60C#048CA33A0220E8
(1710924046.078000) vcan0 60D#047F6FA470800808
(1710924046.155000) vcan0 60A#0130B910
(1710924046.155000) vcan0 60B#044EE4017FE04676
(1710924046.155000) vcan0 60C#048CA33A0220E8
(1710924046.155000) vcan0 60D#047EEFA470800808
(1710924046.234000) vcan0 60A#0130BB10
(1710924046.234000) vcan0 60B#044EE4017FE04676
(1710924046.234000) vcan0 60C#048CA33A0220E8
(1710924046.234000) vcan0 60D#047D0FA470800808
(1710924046.309000) vcan0 60A#0130BD10
(1710924046.309000) vcan0 60B#044EE4027FE04676
(1710924046.309000) vcan0 60C#048CA33A0220E8
(1710924046.309000) vcan0 60D#047C6FA470800808
(1710924046.386000) vcan0 60A#0130BF10
(1710924046.386000) vcan0 60B#044EDC027FE04677
(1710924046.386000) vcan0 60C#048CA33A0220E8
(1710924046.386000) vcan0 60D#047CAFA470800808
(1710924046.433000) vcan0 201#4020800010F40000
(1710924046.433000) vcan0 700#041E0200
(1710924046.449000) vcan0 60A#0130C110
(1710924046.449000) vcan0 60B#044EDC027FE04676
(1710924046.449000) vcan0 60C#048CA33A0220E8
(1710924046.449000) vcan0 60D#047D6FA470800808
(1710924046.526000) vcan0 60A#0130C310
(1710924046.526000) vcan0 60B#044EDC027FE04676
(1710924046.526000) vcan0 60C#048CA53A8220CC
(1710924046.526000) vcan0 60D#047D6FA470800808
(1710924046.605000) vcan0 60A#0130C510
(1710924046.605000) vcan0 60B#044EDC037FE04677
(1710924046.605000) vcan0 60C#048CA53A8220E8
(1710924046.605000) vcan0 60D#047E4FA470800808
(1710924046.683000) vcan0 60A#0130C710
(1710924046.683000) vcan0 60B#044EDC037FE0467A
(1710924046.683000) vcan0 60C#048CA53A0220E8
(1710924046.683000) vcan0 60D#047F8FA470800808
(1710924046.745000) vcan0 60A#0130C910
(1710924046.745000) vcan0 60B#044EDC0380204677
(1710924046.745000) vcan0 60C#048CA53A8220E8
(1710924046.745000) vcan0 60D#0480AFA470800808
(1710924046.822000) vcan0 60A#0030CB10
(1710924046.899000) vcan0 60A#0030CD10
(1710924046.978000) vcan0 60A#0030CF10
(1710924047.056000) vcan0 60A#0030D110
(1710924047.119000) vcan0 60A#0030D310
(1710924047.198000) vcan0 60A#0030D510
(1710924047.276000) vcan0 60A#0030D710
(1710924047.352000) vcan0 60A#0030D910
(1710924047.415000) vcan0 60A#0030DB10
(1710924047.445000) vcan0 201#4020800010F40000
(1710924047.445000) vcan0 700#041E0200
(1710924047.491000) vcan0 60A#0030DD10
(1710924047.568000) vcan0 60A#0030DF10
(1710924047.647000) vcan0 60A#0030E110
(1710924047.724000) vcan0 60A#0030E310
(1710924047.785000) vcan0 60A#0030E510
(1710924047.863000) vcan0 60A#0030E710
(1710924047.940000) vcan0 60A#0030E910
(1710924048.018000) vcan0 60A#0030EB10
(1710924048.096000) vcan0 60A#0030ED10
(1710924048.173000) vcan0 60A#0030EF10
(1710924048.235000) vcan0 60A#0030F110
(1710924048.312000) vcan0 60A#0030F310
(1710924048.389000) vcan0 60A#0030F510
(1710924048.436000) vcan0 201#4020800010F40000
(1710924048.436000) vcan0 700#041E0200
(1710924048.466000) vcan0 60A#0030F710
(1710924048.542000) vcan0 60A#0030F910
(1710924048.605000) vcan0 60A#0030FB10
(1710924048.682000) vcan0 60A#0030FD10
(1710924048.759000) vcan0 60A#0030FF10
(1710924048.836000) vcan0 60A#00310110
(1710924048.914000) vcan0 60A#00310310
(1710924048.977000) vcan0 60A#00310510
(1710924049.055000) vcan0 60A#00310710
(1710924049.133000) vcan0 60A#00310910
(1710924049.211000) vcan0 60A#00310B10
(1710924049.289000) vcan0 60A#00310D10
(1710924049.352000) vcan0 60A#00310F10
(1710924049.429000) vcan0 60A#00311110
(1710924049.444000) vcan0 201#4020800010F40000
(1710924049.444000) vcan0 700#041E0200
(1710924049.506000) vcan0 60A#00311310
(1710924049.569000) vcan0 60A#00311510
(1710924049.645000) vcan0 60A#00311710
(1710924049.722000) vcan0 60A#00311910
(1710924049.798000) vcan0 60A#00311B10
(1710924049.876000) vcan0 60A#00311D10
(1710924049.953000) vcan0 60A#00311F10
(1710924050.014000) vcan0 60A#00312110
(1710924050.093000) vcan0 60A#00312310
(1710924050.171000) vcan0 60A#00312510
(1710924050.248000) vcan0 60A#00312710
(1710924050.310000) vcan0 60A#00312910
(1710924050.388000) vcan0 60A#00312B10
(1710924050.434000) vcan0 201#4020800010F40000
(1710924050.434000) vcan0 700#041E0200
(1710924050.465000) vcan0 60A#00312D10
(1710924050.544000) vcan0 60A#00312F10
(1710924050.621000) vcan0 60A#00313110
(1710924050.684000) vcan0 60A#00313310
(1710924050.761000) vcan0 60A#01313510
(1710924050.761000) vcan0 60B#034E8C077FDFE271
(1710924050.761000) vcan0 60C#03A52B7C820088
(1710924050.761000) vcan0 60D#03D28FA072800000
(1710924050.838000) vcan0 60A#00313710
(1710924050.916000) vcan0 60A#01313910
(1710924050.916000) vcan0 60B#034E8C07805FE16A
(1710924050.916000) vcan0 60C#03A52D7C8220A8
(1710924050.916000) vcan0 60D#03BD2FA070800505
(1710924050.993000) vcan0 60A#01313B10
(1710924050.993000) vcan0 60B#034E8C067FDFC16C
(1710924050.993000) vcan0 60C#039D297C8220C8
(1710924050.993000) vcan0 60D#03962FA070800505
(1710924051.055000) vcan0 60A#01313D10
(1710924051.055000) vcan0 60B#034E84067FDFC16D
(1710924051.055000) vcan0 60C#039CE76C8220E8
(1710924051.055000) vcan0 60D#038C6FA070800505
(1710924051.135000) vcan0 60A#01313F10
(1710924051.135000) vcan0 60B#034E84067FDFC16B
(1710924051.135000) vcan0 60C#039D296C0220C8
(1710924051.135000) vcan0 60D#03830FA070800505
(1710924051.212000) vcan0 60A#01314110
(1710924051.212000) vcan0 60B#034E84067F5FC16C
(1710924051.212000) vcan0 60C#039CE75B8220E8
(1710924051.212000) vcan0 60D#036B0FA070800505
(1710924051.289000) vcan0 60A#01314310
(1710924051.289000) vcan0 60B#034E84057F5FC16D
(1710924051.289000) vcan0 60C#0394E55B0220E8
(1710924051.289000) vcan0 60D#0370EFA070800505
(1710924051.352000) vcan0 60A#01314510
(1710924051.367000) vcan0 60B#034E84057F1FC16E
(1710924051.367000) vcan0 60C#0394E55B0220E8
(1710924051.367000) vcan0 60D#03660FA070800505
(1710924051.429000) vcan0 60A#01314710
(1710924051.429000) vcan0 60B#034E84057F5FA16B
(1710924051.429000) vcan0 60C#0394E55B0220E8
(1710924051.429000) vcan0 60D#036F2FA070800505
(1710924051.444000) vcan0 201#4020800010F40000
(1710924051.444000) vcan0 700#041E0200
(1710924051.506000) vcan0 60A#01314910
(1710924051.506000) vcan0 60B#034E84047F5FA16A
(1710924051.506000) vcan0 60C#0394E54B0220C8
(1710924051.506000) vcan0 60D#0373CFA070800505
(1710924051.583000) vcan0 60A#01314B10
(1710924051.583000) vcan0 60B#034E7C047F5FA169
(1710924051.583000) vcan0 60C#0394E74B0220C8
(1710924051.583000) vcan0 60D#0375CFA070800505
(1710924051.659000) vcan0 60A#01314D10
(1710924051.659000) vcan0 60B#034E7C047F5FA16A
(1710924051.659000) vcan0 60C#0394E54B0220E8
(1710924051.659000) vcan0 60D#037C4FA070800505
(1710924051.736000) vcan0 60A#01314F10
(1710924051.736000) vcan0 60B#034E7C047F5FA169
(1710924051.736000) vcan0 60C#0394E54B0220E8
(1710924051.736000) vcan0 60D#037DEFA070800505
(1710924051.813000) vcan0 60A#01315110
(1710924051.813000) vcan0 60B#034E7C037F9FA16C
(1710924051.813000) vcan0 60C#0394E54B0220E8
(1710924051.813000) vcan0 60D#0382AFA070800505
(1710924051.875000) vcan0 60A#01315310
(1710924051.875000) vcan0 60B#034E7C037FDFA16D
(1710924051.875000) vcan0 60C#0394E54A8220E8
(1710924051.875000) vcan0 60D#038A6FA070800505
(1710924051.953000) vcan0 60A#01315510
(1710924051.953000) vcan0 60B#034E7C037FDFA16C
(1710924051.953000) vcan0 60C#0394A54A8220E8
(1710924051.953000) vcan0 60D#0385CFA070800505
(1710924052.031000) vcan0 60A#01315710
(1710924052.031000) vcan0 60B#034E7C037FDFA171
(1710924052.031000) vcan0 60C#038CA54A8220E8
(1710924052.031000) vcan0 60D#03848FA070800505
(1710924052.108000) vcan0 60A#01315910
(1710924052.108000) vcan0 60B#034E7C027FDFA174
(1710924052.108000) vcan0 60C#038CA53A8220E8
(1710924052.108000) vcan0 60D#03858FA070800505
(1710924052.171000) vcan0 60A#01315B10
(1710924052.187000) vcan0 60B#034E7C027FDFA172
(1710924052.187000) vcan0 60C#038CA33A0220E8
(1710924052.187000) vcan0 60D#0382CFA070800505
(1710924052.248000) vcan0 60A#01315D10
(1710924052.248000) vcan0 60B#034E7C027FDFA172
(1710924052.248000) vcan0 60C#038CA53A0220E8
(1710924052.248000) vcan0 60D#03824FA070800505
(1710924052.326000) vcan0 60A#01315F10
(1710924052.326000) vcan0 60B#034E7C017FDFA172
(1710924052.326000) vcan0 60C#038CA53A0220E8
(1710924052.326000) vcan0 60D#03824FA070800505
(1710924052.389000) vcan0 60A#01316110
(1710924052.405000) vcan0 60B#034E7C017FDFA170
(1710924052.405000) vcan0 60C#038CA33A0220E8
(1710924052.405000) vcan0 60D#0381CFA070800505
(1710924052.452000) vcan0 201#4020800010F40000
(1710924052.452000) vcan0 700#041E0200
(1710924052.467000) vcan0 60A#01316310
(1710924052.467000) vcan0 60B#034E74017FDFA16E
(1710924052.467000) vcan0 60C#038CA33A0220E8
(1710924052.467000) vcan0 60D#03816FA070800505
(1710924052.545000) vcan0 60A#01316510
(1710924052.545000) vcan0 60B#034E74007FDFA16C
(1710924052.545000) vcan0 60C#038CA33A0220E8
(1710924052.545000) vcan0 60D#0380AFA070800505
(1710924052.623000) vcan0 60A#01316710
(1710924052.623000) vcan0 60B#034E74007FDFA16B
(1710924052.623000) vcan0 60C#038CA33A0220E8
(1710924052.623000) vcan0 60D#037CCFA070800505
(1710924052.700000) vcan0 60A#01316910
(1710924052.700000) vcan0 60B#034E74007FDFA16B
(1710924052.700000) vcan0 60C#038CA33A0220E8
(1710924052.700000) vcan0 60D#037B4FA070800505
(1710924052.778000) vcan0 60A#01316B10
(1710924052.778000) vcan0 60B#034E74007FDFA16B
(1710924052.778000) vcan0 60C#038CA33A0220E8
(1710924052.778000) vcan0 60D#037BCFA070800505
(1710924052.841000) vcan0 60A#01316D10
(1710924052.841000) vcan0 60B#034E74007FDFA16B
(1710924052.841000) vcan0 60C#038CA33A0220E8
(1710924052.841000) vcan0 60D#037CAFA070800505
(1710924052.918000) vcan0 60A#01316F10
(1710924052.918000) vcan0 60B#034E73FF7FDFA16C
(1710924052.918000) vcan0 60C#038C633A0220E8
(1710924052.918000) vcan0 60D#037DAFA070800505
(1710924052.995000) vcan0 60A#01317110
(1710924052.995000) vcan0 60B#034E73FF7FDFA16B
(1710924052.995000) vcan0 60C#038C633A0220E8
(1710924052.995000) vcan0 60D#037E8FA070800505
(1710924053.073000) vcan0 60A#01317310
(1710924053.073000) vcan0 60B#034E73FF7FDFA16B
(1710924053.073000) vcan0 60C#038C633A0220E8
(1710924053.073000) vcan0 60D#03806FA070800505
(1710924053.134000) vcan0 60A#00317510
(1710924053.212000) vcan0 60A#00317710
(1710924053.290000) vcan0 60A#00317910
(1710924053.368000) vcan0 60A#00317B10
(1710924053.447000) vcan0 60A#00317D10
(1710924053.447000) vcan0 201#4020800010F40000
(1710924053.447000) vcan0 700#041E0200
(1710924053.508000) vcan0 60A#00317F10
(1710924053.584000) vcan0 60A#01318110
(1710924053.584000) vcan0 60B#034E73FE801FC16D
(1710924053.584000) vcan0 60C#0384633A0220E8
(1710924053.584000) vcan0 60D#037C8FA070800505
(1710924053.662000) vcan0 60A#01318310
(1710924053.662000) vcan0 60B#034E73FE801FC16A
(1710924053.662000) vcan0 60C#0384633A0220E8
(1710924053.662000) vcan0 60D#037CCFA070800505
(1710924053.739000) vcan0 60A#00318510
(1710924053.817000) vcan0 60A#00318710
(1710924053.879000) vcan0 60A#00318910
(1710924053.955000) vcan0 60A#00318B10
(1710924054.033000) vcan0 60A#00318D10
(1710924054.109000) vcan0 60A#00318F10
(1710924054.187000) vcan0 60A#01319110
(1710924054.187000) vcan0 60B#034E6BFC7FDFC16D
(1710924054.187000) vcan0 60C#038CA33A0220E8
(1710924054.187000) vcan0 60D#037AAFA070800505
(1710924054.264000) vcan0 60A#01319310
(1710924054.264000) vcan0 60B#034E6BFC7FDFC169
(1710924054.264000) vcan0 60C#0384A33A0220E8
(1710924054.264000) vcan0 60D#03794FA070800505
(1710924054.327000) vcan0 60A#01319510
(1710924054.327000) vcan0 60B#034E6BFC7FDFC16A
(1710924054.327000) vcan0 60C#0384A33A0220E8
(1710924054.327000) vcan0 60D#03796FA070800505
(1710924054.407000) vcan0 60A#01319710
(1710924054.407000) vcan0 60B#034E6BFB7FDFC16B
(1710924054.407000) vcan0 60C#0384A33A0220E8
(1710924054.407000) vcan0 60D#03782FA070800505
(1710924054.437000) vcan0 201#4020800010F40000
(1710924054.437000) vcan0 700#041E0200
(1710924054.484000) vcan0 60A#01319910
(1710924054.484000) vcan0 60B#034E6BFB7FDFC169
(1710924054.484000) vcan0 60C#0384A33A0220E8
(1710924054.484000) vcan0 60D#03788FA070800505
(1710924054.561000) vcan0 60A#01319B10
(1710924054.561000) vcan0 60B#034E6BFB7FDFC16A
(1710924054.561000) vcan0 60C#0384A33A0220E8
(1710924054.561000) vcan0 60D#037A4FA070800505
(1710924054.622000) vcan0 60A#01319D10
(1710924054.622000) vcan0 60B#034E6BFB7FDFC16B
(1710924054.622000) vcan0 60C#0384A33A0220E8
(1710924054.622000) vcan0 60D#037C4FA070800505
(1710924054.699000) vcan0 60A#01319F10
(1710924054.699000) vcan0 60B#034E6BFA7FDFC16C
(1710924054.699000) vcan0 60C#0384A33A0220E8
(1710924054.699000) vcan0 60D#037F2FA070800505
(1710924054.777000) vcan0 60A#0131A110
(1710924054.777000) vcan0 60B#034E6BFA7FDFC16B
(1710924054.777000) vcan0 60C#038CA53A0220C8
(1710924054.777000) vcan0 60D#037F2FA070800505
(1710924054.855000) vcan0 60A#0131A310
(1710924054.855000) vcan0 60B#034E6BFA801FC16D
(1710924054.855000) vcan0 60C#038CA53A0220E8
(1710924054.855000) vcan0 60D#037F6FA070800505
(1710924054.932000) vcan0 60A#0131A510
(1710924054.932000) vcan0 60B#034E6BFA7FDFC16E
(1710924054.932000) vcan0 60C#038CA53A0220E8
(1710924054.932000) vcan0 60D#037E6FA070800505
(1710924054.995000) vcan0 60A#0131A710
(1710924054.995000) vcan0 60B#034E63FA7FDFC16B
(1710924054.995000) vcan0 60C#038CA53A0220C8
(1710924054.995000) vcan0 60D#037D6FA070800505
(1710924055.072000) vcan0 60A#0131A910
(1710924055.072000) vcan0 60B#034E63FA7FDFC16A
(1710924055.072000) vcan0 60C#038CA53A0220E8
(1710924055.072000) vcan0 60D#037DCFA070800505
(1710924055.150000) vcan0 60A#0031AB10
(1710924055.227000) vcan0 60A#0031AD10
(1710924055.306000) vcan0 60A#0031AF10
(1710924055.367000) vcan0 60A#0031B110
(1710924055.445000) vcan0 201#4020800010F40000
(1710924055.445000) vcan0 700#041E0200
(1710924055.445000) vcan0 60A#0031B310
(1710924055.523000) vcan0 60A#0131B510
(1710924055.523000) vcan0 60B#034E63F9801FC160
(1710924055.523000) vcan0 60C#038CA73A8220C8
(1710924055.523000) vcan0 60D#037CAFA070800505
(1710924055.602000) vcan0 60A#0131B710
(1710924055.602000) vcan0 60B#034E63F97FDFC166
(1710924055.602000) vcan0 60C#038CA53A8220E8
(1710924055.602000) vcan0 60D#0377EFA070800505
(1710924055.664000) vcan0 60A#0131B910
(1710924055.664000) vcan0 60B#034E63F97F9FE165
(1710924055.664000) vcan0 60C#038CA53A0220E8
(1710924055.664000) vcan0 60D#0376AFA070800505
(1710924055.742000) vcan0 60A#0131BB10
(1710924055.742000) vcan0 60B#034E5BF97F9FE165
(1710924055.742000) vcan0 60C#038CA53A8220E8
(1710924055.742000) vcan0 60D#0376AFA070800505
(1710924055.819000) vcan0 60A#0131BD10
(1710924055.819000) vcan0 60B#034E5BF97F9FE165
(1710924055.819000) vcan0 60C#038CA53A8220C8
(1710924055.819000) vcan0 60D#03766FA070800505
(1710924055.895000) vcan0 60A#0131BF10
(1710924055.895000) vcan0 60B#034E5BF97F9FE162
(1710924055.895000) vcan0 60C#038CA53A8220E8
(1710924055.895000) vcan0 60D#03762FA070800505
(1710924055.973000) vcan0 60A#0131C110
(1710924055.973000) vcan0 60B#034E53FA7F5FE163
(1710924055.973000) vcan0 60C#038CA53A0220E8
(1710924055.973000) vcan0 60D#03758FA070800505
(1710924056.050000) vcan0 60A#0131C310
(1710924056.050000) vcan0 60B#034E53FA7F600162
(1710924056.050000) vcan0 60C#038CA53A8220E8
(1710924056.050000) vcan0 60D#03748FA070800505
(1710924056.112000) vcan0 60A#0031C510
(1710924056.189000) vcan0 60A#0031C710
(1710924056.268000) vcan0 60A#0031C910
(1710924056.345000) vcan0 60A#0131CB10
(1710924056.345000) vcan0 60B#034E4BFB7F60015F
(1710924056.345000) vcan0 60C#038CA53A8220E8
(1710924056.345000) vcan0 60D#03766FA070800505
(1710924056.407000) vcan0 60A#0131CD10
(1710924056.407000) vcan0 60B#034E43FB7F202164
(1710924056.407000) vcan0 60C#038CA53A8220E8
(1710924056.407000) vcan0 60D#03744FA070800505
(1710924056.439000) vcan0 201#4020800010F40000
(1710924056.439000) vcan0 700#041E0200
(1710924056.486000) vcan0 60A#0131CF10
(1710924056.486000) vcan0 60B#034E43FB7F202167
(1710924056.486000) vcan0 60C#038CA53A8220E8
(1710924056.486000) vcan0 60D#0376EFA070800505
(1710924056.563000) vcan0 60A#0131D110
(1710924056.563000) vcan0 60B#034E43FC7F202168
(1710924056.563000) vcan0 60C#038CA53A8220E8
(1710924056.563000) vcan0 60D#03770FA070800505
(1710924056.641000) vcan0 60A#0231D310
(1710924056.641000) vcan0 60B#034E3BFC7F202166
(1710924056.641000) vcan0 60B#084F5BE07FE02172
(1710924056.641000) vcan0 60C#038CA73A8220E8
(1710924056.641000) vcan0 60C#089D297C0220A8
(1710924056.641000) vcan0 60D#03774FA070800505
(1710924056.641000) vcan0 60D#08970FA170800A0C
(1710924056.719000) vcan0 60A#0231D510
(1710924056.719000) vcan0 60B#034E3BFC7F202067
(1710924056.719000) vcan0 60B#084F5BE08020616E
(1710924056.719000) vcan0 60C#038CA73A8220C8
(1710924056.719000) vcan0 60C#089D2B7C0220A8
(1710924056.719000) vcan0 60D#0377AFA070800102
(1710924056.719000) vcan0 60D#08954FA670801605
(1710924056.782000) vcan0 60A#0231D710
(1710924056.782000) vcan0 60B#034E3BFC7F202064
(1710924056.782000) vcan0 60B#084F83DD801F6170
(1710924056.782000) vcan0 60C#038CA73A8220C8
(1710924056.782000) vcan0 60C#089D296B8220E8
(1710924056.782000) vcan0 60D#03794FA070800102
(1710924056.782000) vcan0 60D#0891CFA170800A0C
(1710924056.859000) vcan0 60A#0131D910
(1710924056.859000) vcan0 60B#034E33FC7F202062
(1710924056.859000) vcan0 60C#038CA73B0220C8
(1710924056.859000) vcan0 60D#037C8FA070800102
(1710924056.937000) vcan0 60A#0231DB10
(1710924056.937000) vcan0 60B#034E33FD7F602062
(1710924056.937000) vcan0 60B#084F7BDB801F2172
(1710924056.937000) vcan0 60C#038CA73B0220C8
(1710924056.937000) vcan0 60C#089D276B0220CC
(1710924056.937000) vcan0 60D#037F8FA070800102
(1710924056.937000) vcan0 60D#088B2FA170800A0C
(1710924057.000000) vcan0 60A#0331DD10
(1710924057.000000) vcan0 60B#034E33FD7F602062
(1710924057.000000) vcan0 60B#094EB3F98020216F
(1710924057.000000) vcan0 60B#084F7BDB805F2172
(1710924057.000000) vcan0 60C#038CA73B0220C8
(1710924057.000000) vcan0 60C#098CE73A8220CC
(1710924057.000000) vcan0 60C#089D296B0220CC
(1710924057.000000) vcan0 60D#0380AFA070800102
(1710924057.000000) vcan0 60D#0979CFA070800505
(1710924057.015000) vcan0 60D#088B2FA170800A0C
(1710924057.077000) vcan0 60A#0331DF10
(1710924057.077000) vcan0 60B#034E33FD7FA04664
(1710924057.077000) vcan0 60B#094EB3F98020216F
(1710924057.077000) vcan0 60B#084F7BDA805F2172
(1710924057.077000) vcan0 60C#038CA53A8220E8
(1710924057.077000) vcan0 60C#0994E73A8220AC
(1710924057.077000) vcan0 60C#089D696B0220CC
(1710924057.077000) vcan0 60D#03896FA070800505
(1710924057.091000) vcan0 60D#0979CFA070800505
(1710924057.091000) vcan0 60D#088B2FA170800A0C
(1710924057.152000) vcan0 60A#0331E110
(1710924057.152000) vcan0 60B#034E33FD7FE04664
(1710924057.152000) vcan0 60B#094EB3FA7FE0216F
(1710924057.152000) vcan0 60B#084F7BDA805F416C
(1710924057.152000) vcan0 60C#038CA53A8220E8
(1710924057.152000) vcan0 60C#0994E93A8220AC
(1710924057.152000) vcan0 60C#089D696B0220C8
(1710924057.152000) vcan0 60D#0388EFA070800505
(1710924057.152000) vcan0 60D#0979CFA070800505
(1710924057.152000) vcan0 60D#088A4FA670801605
(1710924057.230000) vcan0 60A#0331E310
(1710924057.230000) vcan0 60B#034E33FE7FE04666
(1710924057.230000) vcan0 60B#094EB3FA7FE04167
(1710924057.230000) vcan0 60B#084F8BDA805F616F
(1710924057.230000) vcan0 60C#038CA73B0220E8
(1710924057.230000) vcan0 60C#0994E93A8220A8
(1710924057.230000) vcan0 60C#089D275A8220E8
(1710924057.230000) vcan0 60D#0388CFA070800505
(1710924057.230000) vcan0 60D#09794FA070800505
(1710924057.230000) vcan0 60D#0882AFA670801605
(1710924057.307000) vcan0 60A#0231E510
(1710924057.307000) vcan0 60B#034E33FE7FE0465E
(1710924057.307000) vcan0 60B#084F93DA805F6170
(1710924057.307000) vcan0 60C#038CA73B0220C8
(1710924057.307000) vcan0 60C#089D275A8220C8
(1710924057.307000) vcan0 60D#0388AFA070800505
(1710924057.307000) vcan0 60D#0881EFA670801605
(1710924057.385000) vcan0 60A#0131E710
(1710924057.385000) vcan0 60B#084F93D9805F6170
(1710924057.385000) vcan0 60C#089D295A8220CC
(1710924057.385000) vcan0 60D#0881EFA670801605
(1710924057.448000) vcan0 201#4020800010F40000
(1710924057.448000) vcan0 700#041E0200
(1710924057.448000) vcan0 60A#0131E910
(1710924057.448000) vcan0 60B#084F93D9805F6170
(1710924057.448000) vcan0 60C#089D295A8220CC
(1710924057.448000) vcan0 60D#0881EFA670801605
(1710924057.526000) vcan0 60A#0231EB10
(1710924057.526000) vcan0 60B#034E33FF80604659
(1710924057.526000) vcan0 60B#084F93D9805F6170
(1710924057.526000) vcan0 60C#038CA73A8220E8
(1710924057.526000) vcan0 60C#089D695A8220CC
(1710924057.526000) vcan0 60D#038C0FA070800505
(1710924057.526000) vcan0 60D#0881EFA670801605
(1710924057.604000) vcan0 60A#0231ED10
(1710924057.604000) vcan0 60B#034E33FF8060465F
(1710924057.604000) vcan0 60B#084F93D8805F6170
(1710924057.604000) vcan0 60C#038CA53A8220E8
(1710924057.604000) vcan0 60C#089D695A8220AC
(1710924057.604000) vcan0 60D#0389EFA070800505
(1710924057.604000) vcan0 60D#0881EFA670801605
(1710924057.681000) vcan0 60A#0231EF10
(1710924057.681000) vcan0 60B#034E33FF80604660
(1710924057.681000) vcan0 60B#084F9BD8809F616C
(1710924057.681000) vcan0 60C#038CA53A0220E8
(1710924057.681000) vcan0 60C#089D695A8220A8
(1710924057.681000) vcan0 60D#0388EFA070800505
(1710924057.681000) vcan0 60D#08816FA670801605
(1710924057.758000) vcan0 60A#0231F110
(1710924057.758000) vcan0 60B#034E340080604660
(1710924057.758000) vcan0 60B#084F9BD7809F616C
(1710924057.758000) vcan0 60C#038CA33A0220E8
(1710924057.758000) vcan0 60C#089D6B5B0220AC
(1710924057.758000) vcan0 60D#0387EFA070800505
(1710924057.758000) vcan0 60D#08816FA670801605
(1710924057.836000) vcan0 60A#0231F310
(1710924057.836000) vcan0 60B#034E340080604663
(1710924057.836000) vcan0 60B#084F9BD7809F616D
(1710924057.836000) vcan0 60C#038CA53A0220E8
(1710924057.836000) vcan0 60C#08A56B5B0220A8
(1710924057.836000) vcan0 60D#03872FA070800505
(1710924057.836000) vcan0 60D#08810FA670801605
(1710924057.897000) vcan0 60A#0231F510
(1710924057.897000) vcan0 60B#034E340080A04664
(1710924057.897000) vcan0 60B#084F9BD6809F616D
(1710924057.897000) vcan0 60C#038CA53A8220E8
(1710924057.897000) vcan0 60C#08A56B5B0220A8
(1710924057.897000) vcan0 60D#03888FA070800505
(1710924057.897000) vcan0 60D#08808FA670801605
(1710924057.975000) vcan0 60A#0331F710
(1710924057.975000) vcan0 60B#034E3C0080A04666
(1710924057.975000) vcan0 60B#0C4EE3FF801FE164
(1710924057.975000) vcan0 60B#084F9BD6809F616D
(1710924057.975000) vcan0 60C#038CA53A0220E8
(1710924057.975000) vcan0 60C#0C9D6B7B8220A8
(1710924057.975000) vcan0 60C#08A56B5B02208C
(1710924057.975000) vcan0 60D#0389CFA070800505
(1710924057.975000) vcan0 60D#0C81CFA070800505
(1710924057.975000) vcan0 60D#08808FA670801605
(1710924058.053000) vcan0 60A#0331F910
(1710924058.053000) vcan0 60B#034E3C0180A04669
(1710924058.053000) vcan0 60B#0C4EE3FF805FE164
(1710924058.053000) vcan0 60B#084F9BD5809F616D
(1710924058.053000) vcan0 60C#038CA53A0220E8
(1710924058.053000) vcan0 60C#0C9D6B7B8220AC
(1710924058.053000) vcan0 60C#08A56B5B02208C
(1710924058.053000) vcan0 60D#0388EFA070800505
(1710924058.053000) vcan0 60D#0C81CFA070800505
(1710924058.053000) vcan0 60D#08808FA670801605
(1710924058.116000) vcan0 60A#0231FB10
(1710924058.131000) vcan0 60B#034E3C0180A0466B
(1710924058.131000) vcan0 60B#084F9BD5809F616D
(1710924058.131000) vcan0 60C#038CA53A8220E8
(1710924058.131000) vcan0 60C#08A5AB5B02206C
(1710924058.131000) vcan0 60D#03876FA070800505
(1710924058.131000) vcan0 60D#08808FA670801605
(1710924058.208000) vcan0 60A#0231FD10
(1710924058.208000) vcan0 60B#034E3C0180A0466B
(1710924058.208000) vcan0 60B#084FA3D4809F616D
(1710924058.208000) vcan0 60C#038CA53A8220C8
(1710924058.208000) vcan0 60C#08ADAB5B02206C
(1710924058.208000) vcan0 60D#0386CFA070800505
(1710924058.208000) vcan0 60D#08808FA670801605
(1710924058.270000) vcan0 60A#0231FF10
(1710924058.270000) vcan0 60B#034E3C0180A0466C
(1710924058.270000) vcan0 60B#084FA3D4809F616D
(1710924058.270000) vcan0 60C#038CA53A8220E8
(1710924058.270000) vcan0 60C#08ADAD5B02206C
(1710924058.270000) vcan0 60D#03854FA070800505
(1710924058.270000) vcan0 60D#08808FA670801605
(1710924058.347000) vcan0 60A#01320110
(1710924058.347000) vcan0 60B#034E3C0180A0466B
(1710924058.347000) vcan0 60C#038CA53A8220E8
(1710924058.347000) vcan0 60D#03842FA070800505
(1710924058.410000) vcan0 60A#01320310
(1710924058.410000) vcan0 60B#034E440280E04667
(1710924058.424000) vcan0 60C#038CA53A8220E8
(1710924058.424000) vcan0 60D#03856FA070800505
(1710924058.440000) vcan0 201#4020800010F40000
(1710924058.440000) vcan0 700#041E0200
(1710924058.486000) vcan0 60A#01320510
(1710924058.486000) vcan0 60B#034E440280E04661
(1710924058.486000) vcan0 60C#038CA53A8220E8
(1710924058.486000) vcan0 60D#03872FA070800505
(1710924058.565000) vcan0 60A#01320710
(1710924058.565000) vcan0 60B#034E440281204662
(1710924058.565000) vcan0 60C#038CA53A8220E8
(1710924058.565000) vcan0 60D#0389CFA070800505
(1710924058.642000) vcan0 60A#01320910
(1710924058.642000) vcan0 60B#034E4C0281604665
(1710924058.642000) vcan0 60C#038CA53A8220E8
(1710924058.642000) vcan0 60D#03944FA070800505
(1710924058.720000) vcan0 60A#01320B10
(1710924058.720000) vcan0 60B#034E4C0281A04063
(1710924058.720000) vcan0 60C#038CA73C01A0E8
(1710924058.720000) vcan0 60D#0393AFA070C00505
(1710924058.797000) vcan0 60A#01320D10
(1710924058.797000) vcan0 60B#034E540281204065
(1710924058.797000) vcan0 60C#038CA73C01A0E8
(1710924058.797000) vcan0 60D#03696FA070C00202
(1710924058.860000) vcan0 60A#01320F10
(1710924058.860000) vcan0 60B#034E540381204064
(1710924058.860000) vcan0 60C#038CA93C01A0E8
(1710924058.860000) vcan0 60D#036C2FA070C00202
(1710924058.937000) vcan0 60A#01321110
(1710924058.937000) vcan0 60B#034E540380E04068
(1710924058.937000) vcan0 60C#038CA73C01A0E8
(1710924058.937000) vcan0 60D#035FCFA070C00202
(1710924059.015000) vcan0 60A#01321310
(1710924059.015000) vcan0 60B#034E540380A04065
(1710924059.015000) vcan0 60C#038CA73C01A0E8
(1710924059.015000) vcan0 60D#03642FA070C00202
(1710924059.093000) vcan0 60A#01321510
(1710924059.093000) vcan0 60B#034E540380A04662
(1710924059.093000) vcan0 60C#038CA93B81A0E8
(1710924059.093000) vcan0 60D#036B4FA070C00505
(1710924059.155000) vcan0 60A#01321710
(1710924059.170000) vcan0 60B#034E540380A04662
(1710924059.170000) vcan0 60C#038CA93B81A0E8
(1710924059.170000) vcan0 60D#036E4FA070C00505
(1710924059.234000) vcan0 60A#01321910
(1710924059.234000) vcan0 60B#034E5C0380A0465F
(1710924059.234000) vcan0 60C#0394AB3B81A0E8
(1710924059.234000) vcan0 60D#03740FA070C00505
(1710924059.312000) vcan0 60A#01321B10
(1710924059.312000) vcan0 60B#034E5C0380E04662
(1710924059.312000) vcan0 60C#0394AB3B81A0E8
(1710924059.312000) vcan0 60D#037B8FA070C00505
(1710924059.391000) vcan0 60A#01321D10
(1710924059.392000) vcan0 60B#034E5C0380A04663
(1710924059.392000) vcan0 60C#0394AB3B81A0C8
(1710924059.392000) vcan0 60D#037B2FA070C00505
(1710924059.438000) vcan0 201#4020800010F40000
(1710924059.438000) vcan0 700#041E0200
(1710924059.454000) vcan0 60A#01321F10
(1710924059.454000) vcan0 60B#034E5C0480E04664
(1710924059.454000) vcan0 60C#0394AB3B01A0C8
(1710924059.454000) vcan0 60D#037C4FA070C00505
(1710924059.532000) vcan0 60A#01322110
(1710924059.532000) vcan0 60B#034E640480A04668
(1710924059.532000) vcan0 60C#0394AB3B01A0E8
(1710924059.532000) vcan0 60D#037B8FA070C00505
(1710924059.611000) vcan0 60A#01322310
(1710924059.611000) vcan0 60B#034E640480E04668
(1710924059.611000) vcan0 60C#0394A93A81A0E8
(1710924059.611000) vcan0 60D#037FCFA070C00505
(1710924059.688000) vcan0 60A#01322510
(1710924059.688000) vcan0 60B#034E640480E04668
(1710924059.688000) vcan0 60C#0394A73A81A0E8
(1710924059.688000) vcan0 60D#037F4FA070C00505
(1710924059.766000) vcan0 60A#01322710
(1710924059.766000) vcan0 60B#034E6C0481204666
(1710924059.766000) vcan0 60C#038CA53A81A0E8
(1710924059.766000) vcan0 60D#03828FA070C00505
(1710924059.827000) vcan0 60A#01322910
(1710924059.827000) vcan0 60B#034E6C0481204666
(1710924059.827000) vcan0 60C#038CA53A81A0E8
(1710924059.827000) vcan0 60D#0383CFA070C00505
(1710924059.905000) vcan0 60A#01322B10
(1710924059.905000) vcan0 60B#034E740481202666
(1710924059.905000) vcan0 60C#038CA53A81A0E8
(1710924059.905000) vcan0 60D#03864FA070C00505
(1710924059.983000) vcan0 60A#01322D10
(1710924059.983000) vcan0 60B#034E740481602065
(1710924059.983000) vcan0 60C#038CA53A81A0E8
(1710924059.983000) vcan0 60D#03862FA070C00505
(1710924060.061000) vcan0 60A#01322F10
(1710924060.061000) vcan0 60B#034E740481602062
(1710924060.061000) vcan0 60C#038CA73A81A0C8
(1710924060.061000) vcan0 60D#03860FA070C00102
(1710924060.139000) vcan0 60A#01323110
(1710924060.139000) vcan0 60B#034E7C0481202067
(1710924060.139000) vcan0 60C#038CA53A81A0E8
(1710924060.139000) vcan0 60D#037C2FA070C00102
(1710924060.201000) vcan0 60A#01323310
(1710924060.201000) vcan0 60B#034E7C0580E02069
(1710924060.201000) vcan0 60C#038CA53B81A0E8
(1710924060.201000) vcan0 60D#0378AFA070C00102
(1710924060.279000) vcan0 60A#01323510
(1710924060.279000) vcan0 60B#034E7C0580E02069
(1710924060.279000) vcan0 60C#038CA53B81A0E8
(1710924060.279000) vcan0 60D#03786FA070C00102
(1710924060.356000) vcan0 60A#01323710
(1710924060.356000) vcan0 60B#034E7C0580E02068
(1710924060.356000) vcan0 60C#038CA53B01A0E8
(1710924060.356000) vcan0 60D#037D2FA070C00102
(1710924060.433000) vcan0 60A#01323910
(1710924060.433000) vcan0 60B#034E840581202068
(1710924060.433000) vcan0 60C#038CA53B01A0C8
(1710924060.433000) vcan0 60D#0382AFA070C00102
(1710924060.449000) vcan0 201#4020800010F40000
(1710924060.449000) vcan0 700#041E0200
(1710924060.512000) vcan0 60A#01323B10
(1710924060.512000) vcan0 60B#034E840581202069
(1710924060.512000) vcan0 60C#038CA53B01A0E8
(1710924060.512000) vcan0 60D#0389AFA070C00102
(1710924060.574000) vcan0 60A#01323D10
(1710924060.574000) vcan0 60B#034E840580E02069
(1710924060.574000) vcan0 60C#038CA53B01A0E8
(1710924060.574000) vcan0 60D#0379AFA070C00102
(1710924060.652000) vcan0 60A#01323F10
(1710924060.652000) vcan0 60B#034E8C0580E0206A
(1710924060.652000) vcan0 60C#038CA73B01A0E8
(1710924060.652000) vcan0 60D#03796FA070C00102
(1710924060.728000) vcan0 60A#01324110
(1710924060.728000) vcan0 60B#034E8C0580E0206D
(1710924060.728000) vcan0 60C#038CA53B01A0E8
(1710924060.728000) vcan0 60D#03776FA070C00102
(1710924060.805000) vcan0 60A#01324310
(1710924060.805000) vcan0 60B#034E8C0580E0206D
(1710924060.805000) vcan0 60C#038CA53A81A0E8
(1710924060.805000) vcan0 60D#03782FA070C00102
(1710924060.866000) vcan0 60A#01324510
(1710924060.866000) vcan0 60B#034E940580E0206C
(1710924060.866000) vcan0 60C#038CA53A81A0E8
(1710924060.866000) vcan0 60D#037C2FA070C00102
(1710924060.944000) vcan0 60A#01324710
(1710924060.944000) vcan0 60B#034E940580E0266B
(1710924060.944000) vcan0 60C#038CA53A81A0E8
(1710924060.944000) vcan0 60D#037C6FA070C00102
(1710924061.022000) vcan0 60A#01324910
(1710924061.022000) vcan0 60B#034E940581202668
(1710924061.022000) vcan0 60C#038CA53A81A0E8
(1710924061.022000) vcan0 60D#037F2FA070C00102
(1710924061.100000) vcan0 60A#01324B10
(1710924061.100000) vcan0 60B#034E9C0581202667
(1710924061.100000) vcan0 60C#038CA53A81A0E8
(1710924061.100000) vcan0 60D#037EEFA070C00102
(1710924061.177000) vcan0 60A#01324D10
(1710924061.177000) vcan0 60B#034E9C058120266A
(1710924061.177000) vcan0 60C#038CA53A81A0E8
(1710924061.177000) vcan0 60D#037E8FA070C00102
(1710924061.253000) vcan0 60A#01324F10
(1710924061.253000) vcan0 60B#034E9C0581202669
(1710924061.253000) vcan0 60C#038CA73A81A0C8
(1710924061.253000) vcan0 60D#037E8FA070C00102
(1710924061.315000) vcan0 60A#01325110
(1710924061.315000) vcan0 60B#02505C1D80202177
(1710924061.315000) vcan0 60C#029D273A8220A8
(1710924061.315000) vcan0 60D#027CEFA070800505
(1710924061.392000) vcan0 60A#01325310
(1710924061.392000) vcan0 60B#02505C1D80202177
(1710924061.392000) vcan0 60C#029D273A8220A8
(1710924061.392000) vcan0 60D#027D4FA070800505
(1710924061.439000) vcan0 201#4020800010F40000
(1710924061.439000) vcan0 700#041E0200
(1710924061.470000) vcan0 60A#00325510
(1710924061.547000) vcan0 60A#00325710
(1710924061.626000) vcan0 60A#00325910
(1710924061.686000) vcan0 60A#00325B10
(1710924061.765000) vcan0 60A#00325D10
(1710924061.843000) vcan0 60A#00325F10
(1710924061.907000) vcan0 60A#00326110
(1710924061.984000) vcan0 60A#00326310
(1710924062.062000) vcan0 60A#00326510
(1710924062.139000) vcan0 60A#01326710
(1710924062.139000) vcan0 60B#00506C14801FE16B
(1710924062.139000) vcan0 60C#00A52B4A822068
(1710924062.139000) vcan0 60D#007E4FA070800505
(1710924062.216000) vcan0 60A#02326910
(1710924062.216000) vcan0 60B#034EBC0480E00673
(1710924062.216000) vcan0 60B#00506C14805FE16B
(1710924062.216000) vcan0 60C#038CA53A81A0E8
(1710924062.216000) vcan0 60C#00A52B4B02204C
(1710924062.216000) vcan0 60D#0378EFA070C00102
(1710924062.216000) vcan0 60D#007E4FA070800505
(1710924062.279000) vcan0 60A#02326B10
(1710924062.279000) vcan0 60B#034EC40480E00671
(1710924062.279000) vcan0 60B#00506C14805FE16B
(1710924062.279000) vcan0 60C#038CA53A81A0E8
(1710924062.279000) vcan0 60C#00A52B4B02204C
(1710924062.279000) vcan0 60D#03790FA070C00102
(1710924062.279000) vcan0 60D#007E4FA070800505
(1710924062.356000) vcan0 60A#01326D10
(1710924062.356000) vcan0 60B#034EC40480DFE670
(1710924062.356000) vcan0 60C#038CA53A81A0E8
(1710924062.356000) vcan0 60D#03792FA070C00102
(1710924062.432000) vcan0 60A#01326F10
(1710924062.432000) vcan0 60B#034EC403809FE670
(1710924062.432000) vcan0 60C#038CA53A81A0E8
(1710924062.432000) vcan0 60D#0378EFA070C00102
(1710924062.448000) vcan0 201#4020800010F40000
(1710924062.448000) vcan0 700#041E0200
(1710924062.509000) vcan0 60A#01327110
(1710924062.509000) vcan0 60B#034EC403809FE66F
(1710924062.509000) vcan0 60C#038CA53A81A0E8
(1710924062.509000) vcan0 60D#03768FA070C00102
(1710924062.587000) vcan0 60A#01327310
(1710924062.587000) vcan0 60B#034EC403805FE672
(1710924062.587000) vcan0 60C#038CA53A81A0E8
(1710924062.587000) vcan0 60D#03728FA070C00102
(1710924062.665000) vcan0 60A#02327510
(1710924062.665000) vcan0 60B#034ECC03805FE671
(1710924062.665000) vcan0 60B#054EEBF88020216F
(1710924062.665000) vcan0 60C#038CA53A81A0E8
(1710924062.665000) vcan0 60C#05A56B4A822048
(1710924062.665000) vcan0 60D#0373EFA070C00102
(1710924062.665000) vcan0 60D#057F0FA070800505
(1710924062.743000) vcan0 60A#02327710
(1710924062.743000) vcan0 60B#034ECC03805FE672
(1710924062.743000) vcan0 60B#054EEBF88020216F
(1710924062.743000) vcan0 60C#038CA53A81A0E8
(1710924062.743000) vcan0 60C#05A56B4A82202C
(1710924062.743000) vcan0 60D#03742FA070C00102
(1710924062.743000) vcan0 60D#057F0FA070800505
(1710924062.806000) vcan0 60A#01327910
(1710924062.806000) vcan0 60B#034ECC03805FE672
(1710924062.806000) vcan0 60C#038CA53A81A0E8
(1710924062.806000) vcan0 60D#0376AFA070C00102
(1710924062.884000) vcan0 60A#01327B10
(1710924062.884000) vcan0 60B#034ECC02809FE674
(1710924062.884000) vcan0 60C#038CA53A01A0E8
(1710924062.884000) vcan0 60D#037B2FA070C00102
(1710924062.962000) vcan0 60A#01327D10
(1710924062.962000) vcan0 60B#034ED402809FE674
(1710924062.962000) vcan0 60C#038CA53A01A0E8
(1710924062.962000) vcan0 60D#037EEFA070C00101
(1710924063.025000) vcan0 60A#01327F10
(1710924063.025000) vcan0 60B#034ED402809FE672
(1710924063.025000) vcan0 60C#038CA53A01A0E8
(1710924063.025000) vcan0 60D#0380CFA070C00101
(1710924063.103000) vcan0 60A#01328110
(1710924063.103000) vcan0 60B#034ED402809FE670
(1710924063.103000) vcan0 60C#038CA33A01A0E8
(1710924063.103000) vcan0 60D#037F2FA070C00101
(1710924063.180000) vcan0 60A#01328310
(1710924063.180000) vcan0 60B#034ED401809FC671
(1710924063.180000) vcan0 60C#038CA33A01A0E8
(1710924063.180000) vcan0 60D#037BCFA070C00101
(1710924063.257000) vcan0 60A#01328510
(1710924063.257000) vcan0 60B#034ED401809FC670
(1710924063.257000) vcan0 60C#038CA53A81A0E8
(1710924063.257000) vcan0 60D#037AEFA070C00101
(1710924063.320000) vcan0 60A#01328710
(1710924063.320000) vcan0 60B#034EDC01809FC670
(1710924063.320000) vcan0 60C#038CA53A81A0E8
(1710924063.320000) vcan0 60D#037ACFA070C00101
(1710924063.396000) vcan0 60A#01328910
(1710924063.396000) vcan0 60B#034EDC01805FC672
(1710924063.396000) vcan0 60C#038CA53A81A0E8
(1710924063.412000) vcan0 60D#03776FA070C00101
(1710924063.443000) vcan0 201#4020800010F40000
(1710924063.443000) vcan0 700#041E0200
(1710924063.474000) vcan0 60A#01328B10
(1710924063.474000) vcan0 60B#034EDC00805FC673
(1710924063.474000) vcan0 60C#038CA33A01A0E8
(1710924063.474000) vcan0 60D#0376EFA070C00101
(1710924063.552000) vcan0 60A#01328D10
(1710924063.552000) vcan0 60B#034EDC00805FC676
(1710924063.552000) vcan0 60C#038CA33A01A0E8
(1710924063.552000) vcan0 60D#03756FA070C00101
(1710924063.629000) vcan0 60A#01328F10
(1710924063.629000) vcan0 60B#034EDC00805FC673
(1710924063.629000) vcan0 60C#038CA33A01A0E8
(1710924063.629000) vcan0 60D#0377CFA070C00101
(1710924063.707000) vcan0 60A#01329110
(1710924063.707000) vcan0 60B#034EDC00805FC670
(1710924063.707000) vcan0 60C#038CA53A81A0C8
(1710924063.707000) vcan0 60D#0378CFA070C00101
(1710924063.785000) vcan0 60A#01329310
(1710924063.785000) vcan0 60B#034EDC00805FC673
(1710924063.785000) vcan0 60C#038CA53A01A0E8
(1710924063.785000) vcan0 60D#0376CFA070C00101
(1710924063.846000) vcan0 60A#00329510
(1710924063.923000) vcan0 60A#00329710
(1710924064.001000) vcan0 60A#00329910
(1710924064.062000) vcan0 60A#00329B10
(1710924064.140000) vcan0 60A#01329D10
(1710924064.140000) vcan0 60B#034EE3FE7FDFC676
(1710924064.140000) vcan0 60C#038CA33A01A0E8
(1710924064.140000) vcan0 60D#03742FA070C00101
(1710924064.218000) vcan0 60A#01329F10
(1710924064.218000) vcan0 60B#034EDBFE7FDFA678
(1710924064.218000) vcan0 60C#038CA33A01A0E8
(1710924064.218000) vcan0 60D#0374EFA070C00101
(1710924064.295000) vcan0 60A#0132A110
(1710924064.295000) vcan0 60B#034EDBFE7FDFA676
(1710924064.295000) vcan0 60C#038CA33A01A0E8
(1710924064.295000) vcan0 60D#0374AFA070C00101
(1710924064.372000) vcan0 60A#0132A310
(1710924064.372000) vcan0 60B#034EDBFD7FDFA673
(1710924064.372000) vcan0 60C#038CA33A01A0E8
(1710924064.372000) vcan0 60D#03730FA070C00101
(1710924064.449000) vcan0 60A#0132A510
(1710924064.449000) vcan0 60B#034EDBFD7FDFA673
(1710924064.449000) vcan0 201#4020800010F40000
(1710924064.449000) vcan0 60C#038CA33A01A0E8
(1710924064.449000) vcan0 700#041E0200
(1710924064.449000) vcan0 60D#03754FA070C00101
(1710924064.526000) vcan0 60A#0132A710
(1710924064.526000) vcan0 60B#034EDBFD7FDFA670
(1710924064.526000) vcan0 60C#038CA53A01A0E8
(1710924064.526000) vcan0 60D#03754FA070C00101
(1710924064.602000) vcan0 60A#0132A910
(1710924064.602000) vcan0 60B#034EDBFC7F9FA670
(1710924064.602000) vcan0 60C#038CA53A01A0C8
(1710924064.602000) vcan0 60D#0375CFA070C00101
(1710924064.664000) vcan0 60A#0132AB10
(1710924064.664000) vcan0 60B#034EDBFC7FDFA671
(1710924064.664000) vcan0 60C#038CA53A01A0E8
(1710924064.664000) vcan0 60D#03788FA070C00101
(1710924064.741000) vcan0 60A#0132AD10
(1710924064.741000) vcan0 60B#034EDBFC7FDFA672
(1710924064.741000) vcan0 60C#038CA53A01A0E8
(1710924064.741000) vcan0 60D#037ACFA070C00101
(1710924064.820000) vcan0 60A#0132AF10
(1710924064.820000) vcan0 60B#034EDBFC7FDFA671
(1710924064.820000) vcan0 60C#038CA53A01A0E8
(1710924064.820000) vcan0 60D#037AAFA070C00102
(1710924064.898000) vcan0 60A#0132B110
(1710924064.898000) vcan0 60B#034EDBFB7FDFA671
(1710924064.898000) vcan0 60C#038CA53A01A0C8
(1710924064.898000) vcan0 60D#0379AFA070C00102
(1710924064.960000) vcan0 60A#0132B310
(1710924064.960000) vcan0 60B#034ED3FB7F9FA672
(1710924064.960000) vcan0 60C#038CA53A01A0E8
(1710924064.960000) vcan0 60D#0377AFA070C00102
(1710924065.036000) vcan0 60A#0132B510
(1710924065.036000) vcan0 60B#034ED3FB7F9FA670
(1710924065.036000) vcan0 60C#038CA53A01A0E8
(1710924065.036000) vcan0 60D#0378EFA070C00102
(1710924065.113000) vcan0 60A#0132B710
(1710924065.113000) vcan0 60B#034ED3FB7F9FA66E
(1710924065.113000) vcan0 60C#038CA53A01A0E8
(1710924065.113000) vcan0 60D#03760FA070C00102
(1710924065.191000) vcan0 60A#0132B910
(1710924065.191000) vcan0 60B#034ED3FA7F9FA66D
(1710924065.191000) vcan0 60C#038CA53A01A0E8
(1710924065.191000) vcan0 60D#03762FA070C00102
(1710924065.253000) vcan0 60A#0132BB10
(1710924065.268000) vcan0 60B#034ED3FA7F9FA66A
(1710924065.268000) vcan0 60C#038CA53A81A0E8
(1710924065.268000) vcan0 60D#03776FA070C00102
(1710924065.346000) vcan0 60A#0132BD10
(1710924065.346000) vcan0 60B#034ED3FA7F9FA66A
(1710924065.346000) vcan0 60C#038CA53A81A0E8
(1710924065.346000) vcan0 60D#03796FA070C00102
(1710924065.408000) vcan0 60A#0132BF10
(1710924065.408000) vcan0 60B#034ECBFA7F9FA66B
(1710924065.408000) vcan0 60C#038CA53A81A0E8
(1710924065.408000) vcan0 60D#0379EFA070C00102
(1710924065.455000) vcan0 201#4020800010F40000
(1710924065.455000) vcan0 700#041E0200
(1710924065.486000) vcan0 60A#0132C110
(1710924065.486000) vcan0 60B#034ECBFA7F9FA66D
(1710924065.486000) vcan0 60C#038CA53A81A0E8
(1710924065.486000) vcan0 60D#037A4FA070C00102
(1710924065.563000) vcan0 60A#0132C310
(1710924065.563000) vcan0 60B#034ECBF97F9FA66D
(1710924065.563000) vcan0 60C#038CA53A81A0E8
(1710924065.563000) vcan0 60D#037BAFA070C00102
(1710924065.641000) vcan0 60A#0132C510
(1710924065.641000) vcan0 60B#034ECBF97F9FA66D
(1710924065.641000) vcan0 60C#038CA53A81A0E8
(1710924065.641000) vcan0 60D#037C8FA070C00102
(1710924065.703000) vcan0 60A#0132C710
(1710924065.703000) vcan0 60B#034ECBF97F9FA66F
(1710924065.703000) vcan0 60C#038CA53A81A0E8
(1710924065.703000) vcan0 60D#037C8FA070C00102
(1710924065.781000) vcan0 60A#0132C910
(1710924065.781000) vcan0 60B#034EC3F97F9FC66D
(1710924065.781000) vcan0 60C#038CA53A81A0C8
(1710924065.781000) vcan0 60D#037CAFA070C00101
(1710924065.861000) vcan0 60A#0132CB10
(1710924065.861000) vcan0 60B#034EC3F97F9FC66D
(1710924065.861000) vcan0 60C#038CA73A81A0C8
(1710924065.861000) vcan0 60D#037B2FA070C00101
(1710924065.938000) vcan0 60A#0132CD10
(1710924065.938000) vcan0 60B#034EC3F87F9FC66D
(1710924065.938000) vcan0 60C#038CE73A81A0C8
(1710924065.938000) vcan0 60D#037B8FA070C00101
(1710924066.002000) vcan0 60A#0132CF10
(1710924066.002000) vcan0 60B#034EC3F87F9FC66C
(1710924066.002000) vcan0 60C#038CE73A81A0C8
(1710924066.002000) vcan0 60D#037CAFA470C00808
(1710924066.081000) vcan0 60A#0132D110
(1710924066.081000) vcan0 60B#034EC3F87F9FC66E
(1710924066.081000) vcan0 60C#038CE73A81A0E8
(1710924066.081000) vcan0 60D#037CEFA470C00808
(1710924066.158000) vcan0 60A#0132D310
(1710924066.158000) vcan0 60B#034EBBF87F9FC671
(1710924066.158000) vcan0 60C#038CE73A81A0E8
(1710924066.158000) vcan0 60D#037CCFA470C00808
(1710924066.236000) vcan0 60A#0132D510
(1710924066.236000) vcan0 60B#034EBBF87F9FC672
(1710924066.236000) vcan0 60C#038CE53A81A0E8
(1710924066.236000) vcan0 60D#037ACFA470C00808
(1710924066.299000) vcan0 60A#0132D710
(1710924066.299000) vcan0 60B#034EBBF87F5FC672
(1710924066.299000) vcan0 60C#038CE73A81A0CC
(1710924066.299000) vcan0 60D#037ACFA470C00808
(1710924066.376000) vcan0 60A#0132D910
(1710924066.376000) vcan0 60B#034EBBF87F5FC671
(1710924066.376000) vcan0 60C#0394E73A81A0E8
(1710924066.376000) vcan0 60D#0379CFA470C00808
(1710924066.454000) vcan0 201#4020800010F40000
(1710924066.454000) vcan0 700#041E0200
(1710924066.454000) vcan0 60A#0132DB10
(1710924066.454000) vcan0 60B#034EB3F87F5FC670
(1710924066.454000) vcan0 60C#0394E73A81A0E8
(1710924066.454000) vcan0 60D#037AAFA470C00808
(1710924066.531000) vcan0 60A#0132DD10
(1710924066.531000) vcan0 60B#034EB3F87F5FC670
(1710924066.531000) vcan0 60C#0394E73A81A0CC
(1710924066.531000) vcan0 60D#037AAFA470C00808
(1710924066.607000) vcan0 60A#0032DF10
(1710924066.685000) vcan0 60A#0032E110
(1710924066.747000) vcan0 60A#0032E310
(1710924066.826000) vcan0 60A#0032E510
(1710924066.903000) vcan0 60A#0032E710
(1710924066.965000) vcan0 60A#0032E910
(1710924067.043000) vcan0 60A#0032EB10
(1710924067.121000) vcan0 60A#0032ED10
(1710924067.198000) vcan0 60A#0032EF10
(1710924067.275000) vcan0 60A#0032F110
(1710924067.337000) vcan0 60A#0032F310
(1710924067.414000) vcan0 60A#0032F510
(1710924067.446000) vcan0 201#4020800010F40000
(1710924067.446000) vcan0 700#041E0200
(1710924067.492000) vcan0 60A#0032F710
(1710924067.570000) vcan0 60A#0032F910
(1710924067.648000) vcan0 60A#0032FB10
(1710924067.710000) vcan0 60A#0032FD10
(1710924067.786000) vcan0 60A#0032FF10
(1710924067.866000) vcan0 60A#01330110
(1710924067.866000) vcan0 60B#034E9BFD7FA04173
(1710924067.866000) vcan0 60C#039CE97C8220E8
(1710924067.866000) vcan0 60D#037D2FA070800505
(1710924067.943000) vcan0 60A#01330310
(1710924067.943000) vcan0 60B#034E9BFD7FA04170
(1710924067.943000) vcan0 60C#039D2B7C8220C8
(1710924067.943000) vcan0 60D#037F0FA070800505
(1710924068.006000) vcan0 60A#00330510
(1710924068.084000) vcan0 60A#01330710
(1710924068.084000) vcan0 60B#034E8BFD7FE06170
(1710924068.084000) vcan0 60C#0394E36B0220E8
(1710924068.084000) vcan0 60D#0389AFA070800505
(1710924068.161000) vcan0 60A#01330910
(1710924068.161000) vcan0 60B#034E83FD7FE0416E
(1710924068.161000) vcan0 60C#0394A35B0220E8
(1710924068.161000) vcan0 60D#0382EFA070800505
(1710924068.238000) vcan0 60A#01330B10
(1710924068.238000) vcan0 60B#034E8BFE7FE04170
(1710924068.238000) vcan0 60C#0394A35A8220E8
(1710924068.238000) vcan0 60D#03802FA070800505
(1710924068.316000) vcan0 60A#01330D10
(1710924068.316000) vcan0 60B#034E8BFE7FE04172
(1710924068.316000) vcan0 60C#0394A35A8220E8
(1710924068.316000) vcan0 60D#037E4FA070800505
(1710924068.378000) vcan0 60A#01330F10
(1710924068.378000) vcan0 60B#034E83FE7FE06173
(1710924068.378000) vcan0 60C#038CA34A0220E8
(1710924068.378000) vcan0 60D#037C4FA070800505
(1710924068.439000) vcan0 201#4020800010F40000
(1710924068.455000) vcan0 700#041E0200
(1710924068.455000) vcan0 60A#01331110
(1710924068.455000) vcan0 60B#034E8BFF7FE06174
(1710924068.455000) vcan0 60C#038CA34A0220E8
(1710924068.455000) vcan0 60D#037E6FA070800505
(1710924068.534000) vcan0 60A#01331310
(1710924068.534000) vcan0 60B#034E8BFF80206173
(1710924068.534000) vcan0 60C#038CA34A0220E8
(1710924068.534000) vcan0 60D#037FAFA070800505
(1710924068.612000) vcan0 60A#00331510
(1710924068.689000) vcan0 60A#00331710
(1710924068.750000) vcan0 60A#00331910
(1710924068.827000) vcan0 60A#00331B10
(1710924068.904000) vcan0 60A#00331D10
(1710924068.981000) vcan0 60A#00331F10
(1710924069.059000) vcan0 60A#01332110
(1710924069.059000) vcan0 60B#034E8C0080204173
(1710924069.059000) vcan0 60C#038CA33A0220E8
(1710924069.059000) vcan0 60D#03812FA070800505
(1710924069.135000) vcan0 60A#01332310
(1710924069.135000) vcan0 60B#034E8C0080604172
(1710924069.135000) vcan0 60C#038CA33A0220E8
(1710924069.135000) vcan0 60D#03818FA070800505
(1710924069.197000) vcan0 60A#01332510
(1710924069.197000) vcan0 60B#034E8C0080604172
(1710924069.197000) vcan0 60C#038CA33A0220CC
(1710924069.197000) vcan0 60D#03818FA070800505
(1710924069.274000) vcan0 60A#01332710
(1710924069.274000) vcan0 60B#034E8C018020416C
(1710924069.274000) vcan0 60C#038CA53A0220C8
(1710924069.274000) vcan0 60D#037EEFA070800505
(1710924069.353000) vcan0 60A#00332910
(1710924069.429000) vcan0 60A#00332B10
(1710924069.444000) vcan0 201#4020800010F40000
(1710924069.444000) vcan0 700#041E0200
(1710924069.507000) vcan0 60A#00332D10
(1710924069.571000) vcan0 60A#01332F10
(1710924069.571000) vcan0 60B#034E8C027FE0616F
(1710924069.571000) vcan0 60C#038CA33A0220E8
(1710924069.571000) vcan0 60D#03772FA070800505
(1710924069.649000) vcan0 60A#01333110
(1710924069.649000) vcan0 60B#034E8C027FE06171
(1710924069.649000) vcan0 60C#038CA53A0220E8
(1710924069.649000) vcan0 60D#0374EFA070800505
(1710924069.728000) vcan0 60A#01333310
(1710924069.728000) vcan0 60B#034E8C037FE06171
(1710924069.728000) vcan0 60C#038CA33A0220E8
(1710924069.728000) vcan0 60D#0372AFA070800505
(1710924069.790000) vcan0 60A#01333510
(1710924069.805000) vcan0 60B#034E8C037FE0616D
(1710924069.805000) vcan0 60C#038CA33A0220E8
(1710924069.805000) vcan0 60D#0374CFA070800505
(1710924069.868000) vcan0 60A#01333710
(1710924069.868000) vcan0 60B#034E84037FA0616F
(1710924069.868000) vcan0 60C#038CA33A0220E8
(1710924069.868000) vcan0 60D#03720FA070800505
(1710924069.948000) vcan0 60A#01333910
(1710924069.948000) vcan0 60B#034E84047FA0616E
(1710924069.948000) vcan0 60C#038CA33A0220E8
(1710924069.948000) vcan0 60D#0374CFA070800505
(1710924070.010000) vcan0 60A#01333B10
(1710924070.010000) vcan0 60B#034E84047FA0616F
(1710924070.010000) vcan0 60C#038CA33A0220E8
(1710924070.010000) vcan0 60D#0376EFA070800505
(1710924070.088000) vcan0 60A#01333D10
(1710924070.088000) vcan0 60B#034E84047FA0616C
(1710924070.088000) vcan0 60C#038CA53A8220E8
(1710924070.088000) vcan0 60D#0377CFA070800505
(1710924070.166000) vcan0 60A#01333F10
(1710924070.166000) vcan0 60B#034E84047FA0616E
(1710924070.166000) vcan0 60C#038CA53A8220E8
(1710924070.166000) vcan0 60D#0376CFA070800505
(1710924070.245000) vcan0 60A#01334110
(1710924070.245000) vcan0 60B#034E84057FA06170
(1710924070.245000) vcan0 60C#038CA53A0220E8
(1710924070.245000) vcan0 60D#03776FA070800505
(1710924070.328000) vcan0 60A#01334310
(1710924070.328000) vcan0 60B#034E7C057FA06171
(1710924070.328000) vcan0 60C#038CA53A8220E8
(1710924070.328000) vcan0 60D#03782FA070800505
(1710924070.388000) vcan0 60A#01334510
(1710924070.388000) vcan0 60B#034E7C057FA0616F
(1710924070.388000) vcan0 60C#038CA53A8220C8
(1710924070.388000) vcan0 60D#0377EFA070800505
(1710924070.450000) vcan0 201#4020800010F40000
(1710924070.450000) vcan0 700#041E0200
(1710924070.465000) vcan0 60A#01334710
(1710924070.465000) vcan0 60B#034E7C057FA06172
(1710924070.465000) vcan0 60C#038CA53A8220E8
(1710924070.465000) vcan0 60D#037B2FA070800505
(1710924070.544000) vcan0 60A#01334910
(1710924070.544000) vcan0 60B#034E7C067FA06171
(1710924070.544000) vcan0 60C#038CA53A8220E8
(1710924070.544000) vcan0 60D#037CEFA070800505
(1710924070.620000) vcan0 60A#01334B10
(1710924070.620000) vcan0 60B#034E7C067FA06171
(1710924070.620000) vcan0 60C#038CA53A8220E8
(1710924070.620000) vcan0 60D#037C2FA070800505
(1710924070.683000) vcan0 60A#01334D10
(1710924070.683000) vcan0 60B#034E74067FA0416E
(1710924070.683000) vcan0 60C#038CA53A8220E8
(1710924070.683000) vcan0 60D#037C0FA070800505
(1710924070.762000) vcan0 60A#01334F10
(1710924070.762000) vcan0 60B#034E74067FA0416B
(1710924070.762000) vcan0 60C#038CA53A8220E8
(1710924070.762000) vcan0 60D#037AEFA070800505
(1710924070.840000) vcan0 60A#01335110
(1710924070.840000) vcan0 60B#034E74067FA0416A
(1710924070.840000) vcan0 60C#038CA53A8220E8
(1710924070.840000) vcan0 60D#037AEFA070800505
(1710924070.917000) vcan0 60A#01335310
(1710924070.917000) vcan0 60B#034E74067F60416A
(1710924070.917000) vcan0 60C#038CA53A8220E8
(1710924070.917000) vcan0 60D#0379EFA070800505
(1710924070.996000) vcan0 60A#01335510
(1710924070.996000) vcan0 60B#034E6C067F604169
(1710924070.996000) vcan0 60C#038CA53A8220E8
(1710924070.996000) vcan0 60D#0379CFA070800505
(1710924071.058000) vcan0 60A#01335710
(1710924071.058000) vcan0 60B#034E6C067F60416C
(1710924071.058000) vcan0 60C#038CA53A8220E8
(1710924071.058000) vcan0 60D#03788FA070800505
(1710924071.137000) vcan0 60A#01335910
(1710924071.137000) vcan0 60B#034E64067F20416D
(1710924071.137000) vcan0 60C#038CA53A8220E8
(1710924071.137000) vcan0 60D#03718FA070800505
(1710924071.200000) vcan0 60A#01335B10
(1710924071.200000) vcan0 60B#034E64067F20216C
(1710924071.200000) vcan0 60C#038CA53A8220E8
(1710924071.216000) vcan0 60D#03736FA070800505
(1710924071.278000) vcan0 60A#01335D10
(1710924071.278000) vcan0 60B#034E64067F20216B
(1710924071.278000) vcan0 60C#038CA53A8220E8
(1710924071.278000) vcan0 60D#03796FA070800505
(1710924071.357000) vcan0 60A#01335F10
(1710924071.357000) vcan0 60B#034E5C067F202169
(1710924071.357000) vcan0 60C#038CA73B0220E8
(1710924071.357000) vcan0 60D#03796FA070800505
(1710924071.434000) vcan0 60A#01336110
(1710924071.434000) vcan0 60B#034E5C067F60216A
(1710924071.434000) vcan0 60C#038CA53B0220E8
(1710924071.434000) vcan0 60D#037E2FA070800505
(1710924071.449000) vcan0 201#4020800010F40000
(1710924071.449000) vcan0 700#041E0200
(1710924071.511000) vcan0 60A#01336310
(1710924071.511000) vcan0 60B#034E5C067F602168
(1710924071.511000) vcan0 60C#038CA53B0220E8
(1710924071.511000) vcan0 60D#037D2FA070800505
(1710924071.574000) vcan0 60A#01336510
(1710924071.574000) vcan0 60B#034E54067F202069
(1710924071.574000) vcan0 60C#038CA53B0220E8
(1710924071.574000) vcan0 60D#0379CFA070800505
(1710924071.652000) vcan0 60A#01336710
(1710924071.652000) vcan0 60B#034E54057F20206A
(1710924071.652000) vcan0 60C#038CA53A8220E8
(1710924071.652000) vcan0 60D#03780FA070800202
(1710924071.730000) vcan0 60A#01336910
(1710924071.730000) vcan0 60B#034E4C057F200069
(1710924071.730000) vcan0 60C#038CA53A8220E8
(1710924071.730000) vcan0 60D#03770FA070800202
(1710924071.809000) vcan0 60A#00336B10
(1710924071.872000) vcan0 60A#00336D10
(1710924071.949000) vcan0 60A#00336F10
(1710924072.027000) vcan0 60A#00337110
(1710924072.105000) vcan0 60A#00337310
(1710924072.167000) vcan0 60A#00337510
(1710924072.246000) vcan0 60A#00337710
(1710924072.325000) vcan0 60A#01337910
(1710924072.325000) vcan0 60B#034E34047F200066
(1710924072.325000) vcan0 60C#0394A93C0220C8
(1710924072.325000) vcan0 60D#03814FA070800202
(1710924072.405000) vcan0 60A#00337B10
(1710924072.450000) vcan0 201#4020800010F40000
(1710924072.450000) vcan0 700#041E0200
(1710924072.466000) vcan0 60A#00337D10
(1710924072.543000) vcan0 60A#00337F10
(1710924072.622000) vcan0 60A#00338110
(1710924072.699000) vcan0 60A#00338310
(1710924072.777000) vcan0 60A#00338510
(1710924072.841000) vcan0 60A#02338710
(1710924072.841000) vcan0 60B#034E2C037FDFE665
(1710924072.841000) vcan0 60B#0A4E94127FA0019A
(1710924072.841000) vcan0 60C#039CE93B0220C8
(1710924072.841000) vcan0 60C#0A9D295A8220C8
(1710924072.841000) vcan0 60D#038A2FA070800505
(1710924072.841000) vcan0 60D#0A74AFA070800505
(1710924072.919000) vcan0 60A#01338910
(1710924072.919000) vcan0 60B#0A4E8C127FA0019A
(1710924072.919000) vcan0 60C#0A9D295A8220CC
(1710924072.919000) vcan0 60D#0A74AFA070800505
(1710924072.997000) vcan0 60A#01338B10
(1710924072.997000) vcan0 60B#0A4E8C127F60019A
(1710924072.997000) vcan0 60C#0A9D295A8220CC
(1710924072.997000) vcan0 60D#0A74AFA070800505
(1710924073.059000) vcan0 60A#01338D10
(1710924073.059000) vcan0 60B#0A4E8C127F60019A
(1710924073.059000) vcan0 60C#0A9D295A8220AC
(1710924073.059000) vcan0 60D#0A74AFA070800505
(1710924073.137000) vcan0 60A#02338F10
(1710924073.137000) vcan0 60B#034E3C00805FC66C
(1710924073.137000) vcan0 60B#0A4E8C127F60019A
(1710924073.137000) vcan0 60C#0394A53B0220E8
(1710924073.153000) vcan0 60C#0A9D6B5A8220AC
(1710924073.153000) vcan0 60D#038D4FA070800505
(1710924073.153000) vcan0 60D#0A74AFA070800505
(1710924073.216000) vcan0 60A#02339110
(1710924073.216000) vcan0 60B#034E3C00805FC668
(1710924073.216000) vcan0 60B#0A4E84127F60019A
(1710924073.216000) vcan0 60C#0394A53A8220E8
(1710924073.216000) vcan0 60C#0AA56B5A8220AC
(1710924073.216000) vcan0 60D#038A6FA070800505
(1710924073.216000) vcan0 60D#0A74AFA070800505
(1710924073.279000) vcan0 60A#02339310
(1710924073.279000) vcan0 60B#034E43FF809FC66B
(1710924073.279000) vcan0 60B#0A4E84127F60019A
(1710924073.279000) vcan0 60C#0394A53A8220E8
(1710924073.295000) vcan0 60C#0AA56B5A8220AC
(1710924073.295000) vcan0 60D#0388CFA070800505
(1710924073.295000) vcan0 60D#0A74AFA070800505
(1710924073.358000) vcan0 60A#02339510
(1710924073.358000) vcan0 60B#034E43FF809FC66D
(1710924073.358000) vcan0 60B#0A4E84127F20019A
(1710924073.358000) vcan0 60C#0394A53A8220E8
(1710924073.358000) vcan0 60C#0AA56B5B0220AC
(1710924073.358000) vcan0 60D#0387AFA070800505
(1710924073.358000) vcan0 60D#0A74AFA070800505
(1710924073.436000) vcan0 60A#02339710
(1710924073.436000) vcan0 60B#034E43FF809FC66C
(1710924073.436000) vcan0 60B#0A4E7C127F20019A
(1710924073.436000) vcan0 60C#0394A53A8220E8
(1710924073.436000) vcan0 60C#0AA56B5B02208C
(1710924073.436000) vcan0 60D#03870FA070800505
(1710924073.436000) vcan0 60D#0A74AFA070800505
(1710924073.451000) vcan0 201#4020800010F40000
(1710924073.451000) vcan0 700#041E0200
(1710924073.513000) vcan0 60A#02339910
(1710924073.513000) vcan0 60B#034E43FE809FA66D
(1710924073.513000) vcan0 60B#0A4E7C127F20019A
(1710924073.513000) vcan0 60C#038CA53A8220E8
(1710924073.513000) vcan0 60C#0AA56B5B02208C
(1710924073.513000) vcan0 60D#03850FA070800505
(1710924073.513000) vcan0 60D#0A74AFA070800505
(1710924073.591000) vcan0 60A#01339B10
(1710924073.591000) vcan0 60B#034E43FE809FA668
(1710924073.591000) vcan0 60C#038CA33A0220E8
(1710924073.591000) vcan0 60D#03868FA070800505
(1710924073.669000) vcan0 60A#01339D10
(1710924073.669000) vcan0 60B#034E4BFE80DFA668
(1710924073.669000) vcan0 60C#038CA33A0220E8
(1710924073.669000) vcan0 60D#0386EFA070800505
(1710924073.730000) vcan0 60A#01339F10
(1710924073.730000) vcan0 60B#034E4BFE80DFA668
(1710924073.730000) vcan0 60C#038CA33A0220E8
(1710924073.730000) vcan0 60D#038B0FA070800505
(1710924073.807000) vcan0 60A#0133A110
(1710924073.807000) vcan0 60B#034E4BFD811FA66B
(1710924073.807000) vcan0 60C#038CA33A8220E8
(1710924073.807000) vcan0 60D#038FEFA070800505
(1710924073.886000) vcan0 60A#0133A310
(1710924073.886000) vcan0 60B#034E53FD815FA667
(1710924073.886000) vcan0 60C#038CA53B0220E8
(1710924073.886000) vcan0 60D#0390CFA070800505
(1710924073.963000) vcan0 60A#0233A510
(1710924073.963000) vcan0 60B#034E53FC815FA669
(1710924073.963000) vcan0 60B#0C4FA3EA80DFE06E
(1710924073.963000) vcan0 60C#038CA53B0220E8
(1710924073.963000) vcan0 60C#0CA52D8D022068
(1710924073.963000) vcan0 60D#03868FA070800505
(1710924073.963000) vcan0 60D#0C728FA070800100
(1710924074.042000) vcan0 60A#0233A710
(1710924074.042000) vcan0 60B#034E5BFC815FA06C
(1710924074.042000) vcan0 60B#0C4FA3EA80DFE16E
(1710924074.042000) vcan0 60C#038CA73B01A0E8
(1710924074.042000) vcan0 60C#0CA56F8D02204C
(1710924074.042000) vcan0 60D#0385AFA070400505
(1710924074.042000) vcan0 60D#0C728FA070800505
(1710924074.103000) vcan0 60A#0233A910
(1710924074.103000) vcan0 60B#034E5BFC811FA06C
(1710924074.103000) vcan0 60B#0C4FA3EA80DFE16E
(1710924074.103000) vcan0 60C#038CA53C01A0E8
(1710924074.103000) vcan0 60C#0CAD718D02204C
(1710924074.103000) vcan0 60D#037CCFA070400505
(1710924074.103000) vcan0 60D#0C728FA070800505
(1710924074.181000) vcan0 60A#0133AB10
(1710924074.181000) vcan0 60B#034E5BFC80DFA06A
(1710924074.181000) vcan0 60C#038CA73C01A0E8
(1710924074.181000) vcan0 60D#037A8FA070400505
(1710924074.257000) vcan0 60A#0133AD10
(1710924074.257000) vcan0 60B#034E63FB811FA068
(1710924074.257000) vcan0 60C#038CA73B81A0E8
(1710924074.257000) vcan0 60D#037E4FA070400505
(1710924074.334000) vcan0 60A#0133AF10
(1710924074.334000) vcan0 60B#034E63FB811FA067
(1710924074.334000) vcan0 60C#038CA73B01A0E8
(1710924074.334000) vcan0 60D#037D4FA070400505
(1710924074.419000) vcan0 60A#0133B110
(1710924074.419000) vcan0 60B#034E63FB811FA067
(1710924074.419000) vcan0 60C#038CA73B01A0E8
(1710924074.419000) vcan0 60D#03870FA070400202
(1710924074.446000) vcan0 201#4020800010F40000
(1710924074.446000) vcan0 700#041E0200
(1710924074.477000) vcan0 60A#0133B310
(1710924074.477000) vcan0 60B#034E6BFB815FA065
(1710924074.477000) vcan0 60C#038CA73B01A0E8
(1710924074.477000) vcan0 60D#0387AFA070400202
(1710924074.555000) vcan0 60A#0133B510
(1710924074.555000) vcan0 60B#034E6BFB815FA065
(1710924074.555000) vcan0 60C#038CA73B01A0E8
(1710924074.555000) vcan0 60D#0387EFA070400202
(1710924074.634000) vcan0 60A#0133B710
(1710924074.634000) vcan0 60B#034E6BFA815FA067
(1710924074.634000) vcan0 60C#038CA93B01A0E8
(1710924074.634000) vcan0 60D#0385AFA070400202
(1710924074.696000) vcan0 60A#0133B910
(1710924074.696000) vcan0 60B#034E73FA815FA06B
(1710924074.696000) vcan0 60C#038CA93B01A0E8
(1710924074.696000) vcan0 60D#03826FA070400202
(1710924074.774000) vcan0 60A#0133BB10
(1710924074.774000) vcan0 60B#034E73FA815FC069
(1710924074.774000) vcan0 60C#0394A93B01A0E8
(1710924074.774000) vcan0 60D#03814FA070400202
(1710924074.851000) vcan0 60A#0133BD10
(1710924074.851000) vcan0 60B#034E73FA811FC068
(1710924074.851000) vcan0 60C#0394A93B01A0C8
(1710924074.851000) vcan0 60D#037E6FA070400202
(1710924074.931000) vcan0 60A#0133BF10
(1710924074.931000) vcan0 60B#034E7BFA811FC067
(1710924074.931000) vcan0 60C#0394A93B01A0C8
(1710924074.931000) vcan0 60D#037D4FA070400202
(1710924075.010000) vcan0 60A#0133C110
(1710924075.010000) vcan0 60B#034E73FA80DFC068
(1710924075.010000) vcan0 60C#0394A93B01A0E8
(1710924075.010000) vcan0 60D#037A6FA070400202
(1710924075.074000) vcan0 60A#0133C310
(1710924075.074000) vcan0 60B#034E7BFA80DFC067
(1710924075.074000) vcan0 60C#0394A93A81A0C8
(1710924075.074000) vcan0 60D#037C4FA070400202
(1710924075.150000) vcan0 60A#0133C510
(1710924075.150000) vcan0 60B#034E7BFA811FC06A
(1710924075.150000) vcan0 60C#038CA53A81A0E8
(1710924075.150000) vcan0 60D#037D0FA070400202
(1710924075.227000) vcan0 60A#0133C710
(1710924075.227000) vcan0 60B#034E7BFA80DFC06B
(1710924075.227000) vcan0 60C#038CA53A81A0E8
(1710924075.227000) vcan0 60D#0378EFA070400202
(1710924075.303000) vcan0 60A#0133C910
(1710924075.303000) vcan0 60B#034E83FA80DFE06A
(1710924075.303000) vcan0 60C#038CA53A81A0E8
(1710924075.303000) vcan0 60D#037B4FA070400202
(1710924075.381000) vcan0 60A#0133CB10
(1710924075.381000) vcan0 60B#034E83FA80DFE66B
(1710924075.381000) vcan0 60C#038CA53A81A0E8
(1710924075.381000) vcan0 60D#0378AFA070400202
(1710924075.445000) vcan0 60A#0133CD10
(1710924075.445000) vcan0 60B#034E83FA80DFE66C
(1710924075.445000) vcan0 201#4020800010F40000
(1710924075.445000) vcan0 60C#038CA33A81A0E8
(1710924075.445000) vcan0 700#041E0200
(1710924075.445000) vcan0 60D#0377EFA070400202
(1710924075.523000) vcan0 60A#0133CF10
(1710924075.523000) vcan0 60B#034E83FA80DFE66B
(1710924075.523000) vcan0 60C#038CA33A81A0E8
(1710924075.523000) vcan0 60D#03798FA070400202
(1710924075.585000) vcan0 60A#0133D110
(1710924075.585000) vcan0 60B#034E8BFA80DFE66C
(1710924075.585000) vcan0 60C#038CA33A81A0E8
(1710924075.585000) vcan0 60D#037C4FA070400202
(1710924075.663000) vcan0 60A#0133D310
(1710924075.663000) vcan0 60B#034E8BFA80E00669
(1710924075.663000) vcan0 60C#038CA53A81A0E8
(1710924075.663000) vcan0 60D#037FCFA070400202
(1710924075.741000) vcan0 60A#0033D510
(1710924075.818000) vcan0 60A#0033D710
(1710924075.881000) vcan0 60A#0033D910
(1710924075.959000) vcan0 60A#0033DB10
(1710924076.036000) vcan0 60A#0033DD10
(1710924076.113000) vcan0 60A#0033DF10
(1710924076.190000) vcan0 60A#0033E110
(1710924076.269000) vcan0 60A#0033E310
(1710924076.345000) vcan0 60A#0133E510
(1710924076.345000) vcan0 60B#034EA3FB80E0066C
(1710924076.345000) vcan0 60C#038CA53A81A0E8
(1710924076.345000) vcan0 60D#037C4FA070400102
(1710924076.422000) vcan0 60A#0133E710
(1710924076.422000) vcan0 60B#034EA3FC80E0266B
(1710924076.422000) vcan0 60C#038CA33A81A0E8
(1710924076.422000) vcan0 60D#037B6FA070400102
(1710924076.452000) vcan0 201#4020800010F40000
(1710924076.452000) vcan0 700#041E0200
(1710924076.484000) vcan0 60A#0133E910
(1710924076.484000) vcan0 60B#034EABFC80E0266B
(1710924076.484000) vcan0 60C#038CA53A81A0E8
(1710924076.484000) vcan0 60D#037B4FA070400102
(1710924076.562000) vcan0 60A#0133EB10
(1710924076.562000) vcan0 60B#034EABFC80A0266C
(1710924076.562000) vcan0 60C#038CA53A81A0E8
(1710924076.562000) vcan0 60D#03750FA070400102
(1710924076.643000) vcan0 60A#0133ED10
(1710924076.643000) vcan0 60B#034EABFC80A0266E
(1710924076.643000) vcan0 60C#038CA33A81A0E8
(1710924076.643000) vcan0 60D#03754FA070400102
(1710924076.706000) vcan0 60A#0133EF10
(1710924076.706000) vcan0 60B#034EABFD80A0266F
(1710924076.706000) vcan0 60C#038CA33A81A0E8
(1710924076.706000) vcan0 60D#03760FA070400102
(1710924076.783000) vcan0 60A#0133F110
(1710924076.783000) vcan0 60B#034EABFD80A02672
(1710924076.783000) vcan0 60C#038CA33A81A0E8
(1710924076.783000) vcan0 60D#0378EFA070400102
(1710924076.862000) vcan0 60A#0133F310
(1710924076.862000) vcan0 60B#034EB3FD80A02674
(1710924076.862000) vcan0 60C#038CA53A81A0E8
(1710924076.862000) vcan0 60D#037CEFA070400102
(1710924076.942000) vcan0 60A#0133F510
(1710924076.942000) vcan0 60B#034EB3FD80A02672
(1710924076.942000) vcan0 60C#038CA53A01A0E8
(1710924076.942000) vcan0 60D#037DCFA070400102
(1710924077.004000) vcan0 60A#0333F710
(1710924077.004000) vcan0 60B#034EB3FD81202672
(1710924077.004000) vcan0 60B#0C4EE3F880A0417A
(1710924077.004000) vcan0 60B#0A4EEC00805FE179
(1710924077.004000) vcan0 60C#038CA33A01A0E8
(1710924077.004000) vcan0 60C#0CA52B8D022088
(1710924077.004000) vcan0 60C#0AA52F8D822068
(1710924077.004000) vcan0 60D#0386CFA070400102
(1710924077.004000) vcan0 60D#0CB02FA070800505
(1710924077.004000) vcan0 60D#0A998FA070800505
(1710924077.082000) vcan0 60A#0233F910
(1710924077.082000) vcan0 60B#034EBBFD81202670
(1710924077.082000) vcan0 60B#0A4EEBFF809FE179
(1710924077.082000) vcan0 60C#038CA53B01A0E8
(1710924077.082000) vcan0 60C#0AA56F8D82206C
(1710924077.082000) vcan0 60D#0386AFA070400102
(1710924077.082000) vcan0 60D#0A998FA070800505
(1710924077.161000) vcan0 60A#0133FB10
(1710924077.161000) vcan0 60B#034EBBFD81202671
(1710924077.161000) vcan0 60C#038CA53B01A0E8
(1710924077.161000) vcan0 60D#0380EFA070400102
(1710924077.238000) vcan0 60A#0133FD10
(1710924077.238000) vcan0 60B#034EBBFE80E02673
(1710924077.238000) vcan0 60C#038CA33A81A0E8
(1710924077.238000) vcan0 60D#03788FA070400102
(1710924077.299000) vcan0 60A#0133FF10
(1710924077.299000) vcan0 60B#034EC3FE80A04673
(1710924077.299000) vcan0 60C#038CA33A81A0E8
(1710924077.299000) vcan0 60D#0371AFA070400102
(1710924077.378000) vcan0 60A#02340110
(1710924077.378000) vcan0 60B#034EC3FE80A04676
(1710924077.378000) vcan0 60B#054FF3DD8020216E
(1710924077.378000) vcan0 60C#038CA33A81A0E8
(1710924077.378000) vcan0 60C#0594E94A8220AC
(1710924077.378000) vcan0 60D#03740FA070400102
(1710924077.378000) vcan0 60D#057E0FA070800505
(1710924077.456000) vcan0 201#4020800010F40000
(1710924077.456000) vcan0 700#041E0200
(1710924077.456000) vcan0 60A#02340310
(1710924077.456000) vcan0 60B#034EC3FE80A02677
(1710924077.456000) vcan0 60B#054FF3DD8020216E
(1710924077.456000) vcan0 60C#038CA33A81A0E8
(1710924077.456000) vcan0 60C#059CE94A8220AC
(1710924077.456000) vcan0 60D#0376CFA070400103
(1710924077.456000) vcan0 60D#057E0FA070800505
(1710924077.533000) vcan0 60A#02340510
(1710924077.533000) vcan0 60B#034EC3FE80A02676
(1710924077.533000) vcan0 60B#054FF3DD8020216E
(1710924077.533000) vcan0 60C#038C633A01A0E8
(1710924077.533000) vcan0 60C#059D294A8220AC
(1710924077.533000) vcan0 60D#0377AFA070400103
(1710924077.533000) vcan0 60D#057E0FA070800505
(1710924077.611000) vcan0 60A#02340710
(1710924077.611000) vcan0 60B#034ECBFE80A02675
(1710924077.611000) vcan0 60B#054FFBDD8020216E
(1710924077.611000) vcan0 60C#038CA33A81A0E8
(1710924077.611000) vcan0 60C#059D294A8220AC
(1710924077.611000) vcan0 60D#03798FA070400103
(1710924077.611000) vcan0 60D#057E0FA070800505
(1710924077.674000) vcan0 60A#02340910
(1710924077.674000) vcan0 60B#034ECBFE80A02676
(1710924077.674000) vcan0 60B#054FFBDD8020216E
(1710924077.674000) vcan0 60C#038CA33A01A0E8
(1710924077.674000) vcan0 60C#059D2B4A82208C
(1710924077.674000) vcan0 60D#037AEFA070400103
(1710924077.674000) vcan0 60D#057E0FA070800505
(1710924077.752000) vcan0 60A#02340B10
(1710924077.752000) vcan0 60B#034ECBFE80A02676
(1710924077.752000) vcan0 60B#054FFBDE8060216E
(1710924077.752000) vcan0 60C#038C633A01A0E8
(1710924077.752000) vcan0 60C#05A52B4B02208C
(1710924077.752000) vcan0 60D#03794FA070400103
(1710924077.752000) vcan0 60D#057E0FA070800505
(1710924077.831000) vcan0 60A#02340D10
(1710924077.831000) vcan0 60B#034ECBFE80A02678
(1710924077.831000) vcan0 60B#054FFBDE8060216E
(1710924077.831000) vcan0 60C#038CA33A81A0E8
(1710924077.831000) vcan0 60C#05A52B4B02206C
(1710924077.831000) vcan0 60D#03796FA070400103
(1710924077.831000) vcan0 60D#057E0FA070800505
(1710924077.909000) vcan0 60A#02340F10
(1710924077.909000) vcan0 60B#034ED3FE80A0267A
(1710924077.909000) vcan0 60B#054FFBDE8060216E
(1710924077.909000) vcan0 60C#038CA33A81A0E8
(1710924077.909000) vcan0 60C#05A52B4B02206C
(1710924077.909000) vcan0 60D#0379CFA070400103
(1710924077.909000) vcan0 60D#057E0FA070800505
(1710924077.970000) vcan0 60A#03341110
(1710924077.970000) vcan0 60B#034ED3FE80A02678
(1710924077.970000) vcan0 60B#054FFBDE8060216F
(1710924077.970000) vcan0 60B#064F83C98120E184
(1710924077.970000) vcan0 60C#038CA33A01A0E8
(1710924077.970000) vcan0 60C#05A52B4B022068
(1710924077.970000) vcan0 60C#06A56F7D022048
(1710924077.970000) vcan0 60D#03792FA070400103
(1710924077.970000) vcan0 60D#057DAFA070800505
(1710924077.970000) vcan0 60D#066EEFA070800505
(1710924078.048000) vcan0 60A#03341310
(1710924078.048000) vcan0 60B#034ED3FF8060267A
(1710924078.048000) vcan0 60B#054FFBDE80202170
(1710924078.048000) vcan0 60B#064F8BCA8120E184
(1710924078.048000) vcan0 60C#038CA33A01A0E8
(1710924078.048000) vcan0 60C#05A52B4A822048
(1710924078.048000) vcan0 60C#06AD717D02204C
(1710924078.048000) vcan0 60D#0374CFA070400103
(1710924078.048000) vcan0 60D#057D4FA070800505
(1710924078.048000) vcan0 60D#066EEFA070800505
(1710924078.124000) vcan0 60A#03341510
(1710924078.124000) vcan0 60B#034ED3FF80A0267B
(1710924078.124000) vcan0 60B#054FFBDE80202170
(1710924078.124000) vcan0 60B#064F8BCA80E0E184
(1710924078.124000) vcan0 60C#038C633A01A0E8
(1710924078.124000) vcan0 60C#05A52B4B02204C
(1710924078.124000) vcan0 60C#06AD717D02202C
(1710924078.124000) vcan0 60D#037A2FA070400103
(1710924078.124000) vcan0 60D#057D4FA070800505
(1710924078.124000) vcan0 60D#066EEFA070800505
(1710924078.201000) vcan0 60A#02341710
(1710924078.201000) vcan0 60B#034ED3FF80A0267A
(1710924078.201000) vcan0 60B#054FFBDE80202171
(1710924078.201000) vcan0 60C#038C633A01A0E8
(1710924078.201000) vcan0 60C#05A52B4A822028
(1710924078.201000) vcan0 60D#037D6FA070400103
(1710924078.201000) vcan0 60D#057CEFA070800505
(1710924078.265000) vcan0 60A#01341910
(1710924078.265000) vcan0 60B#034EDBFF80E0267B
(1710924078.265000) vcan0 60C#0384633A01A0E8
(1710924078.265000) vcan0 60D#03834FA070400103
(1710924078.345000) vcan0 60A#01341B10
(1710924078.345000) vcan0 60B#034EDBFF80E0267A
(1710924078.345000) vcan0 60C#0384A33A01A0E8
(1710924078.345000) vcan0 60D#03852FA070400103
(1710924078.424000) vcan0 60A#01341D10
(1710924078.424000) vcan0 60B#034EDBFF80E0267A
(1710924078.424000) vcan0 60C#0384A53A81A0E8
(1710924078.424000) vcan0 60D#03852FA070400103
(1710924078.455000) vcan0 201#4020800010F40000
(1710924078.455000) vcan0 700#041E0200
(1710924078.502000) vcan0 60A#01341F10
(1710924078.502000) vcan0 60B#034EE3FF80E0267B
(1710924078.502000) vcan0 60C#038CA53A81A0E8
(1710924078.502000) vcan0 60D#03850FA070400103
(1710924078.565000) vcan0 60A#01342110
(1710924078.565000) vcan0 60B#034EE3FF8120267B
(1710924078.565000) vcan0 60C#038CA53A81A0E8
(1710924078.565000) vcan0 60D#0384EFA070400103
(1710924078.643000) vcan0 60A#01342310
(1710924078.643000) vcan0 60B#034EE3FF8120067A
(1710924078.643000) vcan0 60C#038CA73A81A0E8
(1710924078.643000) vcan0 60D#03844FA070400103
(1710924078.722000) vcan0 60A#01342510
(1710924078.722000) vcan0 60B#034EE3FF80E00679
(1710924078.722000) vcan0 60C#038CA53A81A0E8
(1710924078.722000) vcan0 60D#037BCFA070400103
(1710924078.800000) vcan0 60A#00342710
(1710924078.863000) vcan0 60A#00342910
(1710924078.942000) vcan0 60A#00342B10
(1710924079.020000) vcan0 60A#00342D10
(1710924079.084000) vcan0 60A#00342F10
(1710924079.163000) vcan0 60A#00343110
(1710924079.241000) vcan0 60A#00343310
(1710924079.319000) vcan0 60A#00343510
(1710924079.396000) vcan0 60A#00343710
(1710924079.443000) vcan0 201#4020800010F40000
(1710924079.443000) vcan0 700#041E0200
(1710924079.459000) vcan0 60A#00343910
(1710924079.537000) vcan0 60A#00343B10
(1710924079.615000) vcan0 60A#00343D10
(1710924079.678000) vcan0 60A#00343F10
(1710924079.756000) vcan0 60A#00344110
(1710924079.833000) vcan0 60A#00344310
(1710924079.911000) vcan0 60A#00344510
(1710924079.973000) vcan0 60A#00344710
(1710924080.052000) vcan0 60A#00344910
(1710924080.128000) vcan0 60A#00344B10
(1710924080.206000) vcan0 60A#00344D10
(1710924080.284000) vcan0 60A#00344F10
(1710924080.363000) vcan0 60A#00345110
(1710924080.424000) vcan0 60A#00345310
(1710924080.456000) vcan0 201#4020800010F40000
(1710924080.456000) vcan0 700#041E0200
(1710924080.502000) vcan0 60A#00345510
(1710924080.580000) vcan0 60A#00345710
(1710924080.657000) vcan0 60A#01345910
(1710924080.657000) vcan0 60B#054EF3FA80A04174
(1710924080.657000) vcan0 60C#0594E53A8220E8
(1710924080.657000) vcan0 60D#05894FA470800808
(1710924080.721000) vcan0 60A#01345B10
(1710924080.721000) vcan0 60B#054EFBFB80E06174
(1710924080.721000) vcan0 60C#0594E53A0220E8
(1710924080.721000) vcan0 60D#05886FA470800808
(1710924080.797000) vcan0 60A#01345D10
(1710924080.797000) vcan0 60B#054EFBFC80E06174
(1710924080.797000) vcan0 60C#0594A53A8220E8
(1710924080.797000) vcan0 60D#05858FA470800808
(1710924080.875000) vcan0 60A#02345F10
(1710924080.875000) vcan0 60B#054EFBFC80E06174
(1710924080.875000) vcan0 60B#034FB3BF809FE17F
(1710924080.875000) vcan0 60C#0594E53A8220CC
(1710924080.875000) vcan0 60C#039D296C8220A8
(1710924080.875000) vcan0 60D#05858FA470800808
(1710924080.875000) vcan0 60D#0363EFA070800505
(1710924080.952000) vcan0 60A#02346110
(1710924080.952000) vcan0 60B#054F03FC80E06174
(1710924080.952000) vcan0 60B#034FB3BF805FE17F
(1710924080.952000) vcan0 60C#0594E73A8220CC
(1710924080.952000) vcan0 60C#039D2B6C8220AC
(1710924080.952000) vcan0 60D#05858FA470800808
(1710924080.952000) vcan0 60D#0363EFA070800505
(1710924081.031000) vcan0 60A#01346310
(1710924081.031000) vcan0 60B#054F03FC80E06174
(1710924081.031000) vcan0 60C#0594E73A8220AC
(1710924081.031000) vcan0 60D#05858FA470800808
(1710924081.093000) vcan0 60A#01346510
(1710924081.093000) vcan0 60B#054F03FD80E06174
(1710924081.093000) vcan0 60C#0594E74A8220AC
(1710924081.093000) vcan0 60D#05858FA470800808
(1710924081.172000) vcan0 60A#01346710
(1710924081.172000) vcan0 60B#034FB3BF7FDFE17F
(1710924081.172000) vcan0 60C#03A56F6C82208C
(1710924081.172000) vcan0 60D#0363EFA070800505
(1710924081.248000) vcan0 60A#01346910
(1710924081.248000) vcan0 60B#034FB3BE7FDFE17F
(1710924081.248000) vcan0 60C#03A56F6C82206C
(1710924081.248000) vcan0 60D#0363EFA070800505
(1710924081.326000) vcan0 60A#01346B10
(1710924081.326000) vcan0 60B#034FB3BE7F9FE180
(1710924081.326000) vcan0 60C#03A52D5B822088
(1710924081.326000) vcan0 60D#03674FA070800505
(1710924081.403000) vcan0 60A#01346D10
(1710924081.403000) vcan0 60B#034FABBE7F9FE180
(1710924081.403000) vcan0 60C#03A56D5B82208C
(1710924081.403000) vcan0 60D#03674FA070800505
(1710924081.449000) vcan0 201#4020800010F40000
(1710924081.449000) vcan0 700#041E0200
(1710924081.465000) vcan0 60A#01346F10
(1710924081.465000) vcan0 60B#034FABBE7F5FE180
(1710924081.465000) vcan0 60C#03A56D5B82206C
(1710924081.465000) vcan0 60D#03674FA070800505
(1710924081.543000) vcan0 60A#01347110
(1710924081.543000) vcan0 60B#034FABBE7F5FE180
(1710924081.543000) vcan0 60C#03AD6D5B82206C
(1710924081.543000) vcan0 60D#03674FA070800505
(1710924081.620000) vcan0 60A#01347310
(1710924081.620000) vcan0 60B#034FABBD7F1FE180
(1710924081.620000) vcan0 60C#03AD6F5B82204C
(1710924081.620000) vcan0 60D#03674FA070800505
(1710924081.697000) vcan0 60A#01347510
(1710924081.697000) vcan0 60B#034FA3BD7F1FE180
(1710924081.697000) vcan0 60C#03AD6F5B82204C
(1710924081.697000) vcan0 60D#03674FA070800505
(1710924081.760000) vcan0 60A#01347710
(1710924081.760000) vcan0 60B#034FA3BD7EDFE180
(1710924081.760000) vcan0 60C#03AD6F5B82204C
(1710924081.760000) vcan0 60D#03674FA070800505
(1710924081.836000) vcan0 60A#00347910
(1710924081.914000) vcan0 60A#00347B10
(1710924081.993000) vcan0 60A#00347D10
(1710924082.056000) vcan0 60A#00347F10
(1710924082.133000) vcan0 60A#00348110
(1710924082.212000) vcan0 60A#00348310
(1710924082.290000) vcan0 60A#00348510
(1710924082.353000) vcan0 60A#00348710
(1710924082.429000) vcan0 60A#00348910
(1710924082.459000) vcan0 201#4020800010F40000
(1710924082.459000) vcan0 700#041E0200
(1710924082.506000) vcan0 60A#00348B10
(1710924082.585000) vcan0 60A#00348D10
(1710924082.663000) vcan0 60A#00348F10
(1710924082.724000) vcan0 60A#00349110
(1710924082.802000) vcan0 60A#00349310
(1710924082.881000) vcan0 60A#00349510
(1710924082.958000) vcan0 60A#00349710
(1710924083.037000) vcan0 60A#00349910
(1710924083.099000) vcan0 60A#00349B10
(1710924083.176000) vcan0 60A#00349D10
(1710924083.253000) vcan0 60A#00349F10
(1710924083.332000) vcan0 60A#0034A110
(1710924083.410000) vcan0 60A#0034A310
(1710924083.456000) vcan0 201#4020800010F40000
(1710924083.456000) vcan0 700#041E0200
(1710924083.471000) vcan0 60A#0034A510
(1710924083.549000) vcan0 60A#0034A710
(1710924083.626000) vcan0 60A#0034A910
(1710924083.705000) vcan0 60A#0034AB10
(1710924083.767000) vcan0 60A#0034AD10
(1710924083.845000) vcan0 60A#0034AF10
(1710924083.923000) vcan0 60A#0034B110
(1710924084.000000) vcan0 60A#0034B310
(1710924084.062000) vcan0 60A#0034B510
(1710924084.140000) vcan0 60A#0034B710
(1710924084.219000) vcan0 60A#0034B910
(1710924084.296000) vcan0 60A#0134BB10
(1710924084.296000) vcan0 60B#054F14017FE00186
(1710924084.296000) vcan0 60C#058CA34A0220E8
(1710924084.296000) vcan0 60D#0577AFA170800A0C
(1710924084.373000) vcan0 60A#0134BD10
(1710924084.373000) vcan0 60B#054F14017FE00186
(1710924084.373000) vcan0 60C#058CA34A0220E8
(1710924084.373000) vcan0 60D#05776FA170800A0C
(1710924084.436000) vcan0 60A#0034BF10
(1710924084.451000) vcan0 201#4020800010F40000
(1710924084.451000) vcan0 700#041E0200
(1710924084.513000) vcan0 60A#0134C110
(1710924084.513000) vcan0 60B#054F14027FE02188
(1710924084.513000) vcan0 60C#058CA34A0220E8
(1710924084.513000) vcan0 60D#057BEFA170800A0C
(1710924084.592000) vcan0 60A#0034C310
(1710924084.654000) vcan0 60A#0034C510
(1710924084.731000) vcan0 60A#0034C710
(1710924084.808000) vcan0 60A#0034C910
(1710924084.886000) vcan0 60A#0034CB10
(1710924084.965000) vcan0 60A#0034CD10
(1710924085.042000) vcan0 60A#0134CF10
(1710924085.042000) vcan0 60B#034EE3F880200172
(1710924085.042000) vcan0 60C#0394E74A8220C8
(1710924085.042000) vcan0 60D#037A6FA070800505
(1710924085.104000) vcan0 60A#0034D110
(1710924085.182000) vcan0 60A#0034D310
(1710924085.260000) vcan0 60A#0034D510
(1710924085.338000) vcan0 60A#0034D710
(1710924085.399000) vcan0 60A#0034D910
(1710924085.446000) vcan0 201#4020800010F40000
(1710924085.446000) vcan0 700#041E0200
(1710924085.476000) vcan0 60A#0034DB10
(1710924085.554000) vcan0 60A#0034DD10
(1710924085.631000) vcan0 60A#0034DF10
(1710924085.710000) vcan0 60A#0034E110
(1710924085.772000) vcan0 60A#0034E310
(1710924085.849000) vcan0 60A#0134E510
(1710924085.850000) vcan0 60B#034EE3FA7FE04172
(1710924085.850000) vcan0 60C#0394A73A8220E8
(1710924085.850000) vcan0 60D#037B2FA070800505
(1710924085.927000) vcan0 60A#0134E710
(1710924085.927000) vcan0 60B#034EE3FB7FA04174
(1710924085.927000) vcan0 60C#038CA53A0220E8
(1710924085.927000) vcan0 60D#03738FA070800505
(1710924086.003000) vcan0 60A#0134E910
(1710924086.003000) vcan0 60B#034EDBFB7FA06172
(1710924086.003000) vcan0 60C#038CA53A0220E8
(1710924086.003000) vcan0 60D#03724FA070800505
(1710924086.082000) vcan0 60A#0134EB10
(1710924086.082000) vcan0 60B#034EDBFC7F606173
(1710924086.082000) vcan0 60C#038CA53A8220E8
(1710924086.082000) vcan0 60D#03720FA070800505
(1710924086.144000) vcan0 60A#0134ED10
(1710924086.144000) vcan0 60B#034EDBFC7F606172
(1710924086.144000) vcan0 60C#038CA53A8220E8
(1710924086.144000) vcan0 60D#03716FA070800505
(1710924086.221000) vcan0 60A#0134EF10
(1710924086.221000) vcan0 60B#034EDBFC7F606172
(1710924086.221000) vcan0 60C#038CA33A8220E8
(1710924086.221000) vcan0 60D#03718FA070800505
(1710924086.298000) vcan0 60A#0134F110
(1710924086.298000) vcan0 60B#034ED3FD7F606173
(1710924086.298000) vcan0 60C#038CA33A8220E8
(1710924086.298000) vcan0 60D#03760FA070800505
(1710924086.376000) vcan0 60A#0134F310
(1710924086.376000) vcan0 60B#034ED3FD7F606173
