(1710919357.107000) vcan0 60A#00EADB10
(1710919357.107000) vcan0 201#4020800010F40000
(1710919357.107000) vcan0 700#041E0200
(1710919357.184000) vcan0 60A#00EADD10
(1710919357.246000) vcan0 60A#00EADF10
(1710919357.325000) vcan0 60A#00EAE110
(1710919357.404000) vcan0 60A#00EAE310
(1710919357.483000) vcan0 60A#00EAE510
(1710919357.546000) vcan0 60A#00EAE710
(1710919357.626000) vcan0 60A#00EAE910
(1710919357.703000) vcan0 60A#00EAEB10
(1710919357.765000) vcan0 60A#00EAED10
(1710919357.843000) vcan0 60A#00EAEF10
(1710919357.918000) vcan0 60A#00EAF110
(1710919357.996000) vcan0 60A#00EAF310
(1710919358.075000) vcan0 60A#00EAF510
(1710919358.106000) vcan0 201#4020800010F40000
(1710919358.106000) vcan0 700#041E0200
(1710919358.154000) vcan0 60A#00EAF710
(1710919358.216000) vcan0 60A#00EAF910
(1710919358.295000) vcan0 60A#00EAFB10
(1710919358.357000) vcan0 60A#00EAFD10
(1710919358.434000) vcan0 60A#00EAFF10
(1710919358.511000) vcan0 60A#00EB0110
(1710919358.590000) vcan0 60A#00EB0310
(1710919358.665000) vcan0 60A#00EB0510
(1710919358.743000) vcan0 60A#00EB0710
(1710919358.820000) vcan0 60A#00EB0910
(1710919358.882000) vcan0 60A#00EB0B10
(1710919358.960000) vcan0 60A#00EB0D10
(1710919359.037000) vcan0 60A#00EB0F10
(1710919359.100000) vcan0 201#4020800010F40000
(1710919359.100000) vcan0 700#041E0200
(1710919359.116000) vcan0 60A#00EB1110
(1710919359.178000) vcan0 60A#00EB1310
(1710919359.256000) vcan0 60A#00EB1510
(1710919359.334000) vcan0 60A#00EB1710
(1710919359.413000) vcan0 60A#00EB1910
(1710919359.491000) vcan0 60A#00EB1B10
(1710919359.569000) vcan0 60A#00EB1D10
(1710919359.632000) vcan0 60A#00EB1F10
(1710919359.710000) vcan0 60A#00EB2110
(1710919359.788000) vcan0 60A#00EB2310
(1710919359.867000) vcan0 60A#00EB2510
(1710919359.930000) vcan0 60A#00EB2710
(1710919360.008000) vcan0 60A#00EB2910
(1710919360.086000) vcan0 60A#00EB2B10
(1710919360.102000) vcan0 201#4020800010F40000
(1710919360.102000) vcan0 700#041E0200
(1710919360.164000) vcan0 60A#00EB2D10
(1710919360.225000) vcan0 60A#00EB2F10
(1710919360.304000) vcan0 60A#00EB3110
(1710919360.382000) vcan0 60A#00EB3310
(1710919360.444000) vcan0 60A#00EB3510
(1710919360.522000) vcan0 60A#00EB3710
(1710919360.598000) vcan0 60A#00EB3910
(1710919360.678000) vcan0 60A#00EB3B10
(1710919360.755000) vcan0 60A#00EB3D10
(1710919360.833000) vcan0 60A#00EB3F10
(1710919360.896000) vcan0 60A#00EB4110
(1710919360.975000) vcan0 60A#00EB4310
(1710919361.052000) vcan0 60A#00EB4510
(1710919361.100000) vcan0 201#4020800010F40000
(1710919361.100000) vcan0 700#041E0200
(1710919361.116000) vcan0 60A#00EB4710
(1710919361.193000) vcan0 60A#00EB4910
(1710919361.271000) vcan0 60A#00EB4B10
(1710919361.348000) vcan0 60A#00EB4D10
(1710919361.426000) vcan0 60A#00EB4F10
(1710919361.505000) vcan0 60A#00EB5110
(1710919361.568000) vcan0 60A#00EB5310
(1710919361.646000) vcan0 60A#00EB5510
(1710919361.723000) vcan0 60A#00EB5710
(1710919361.800000) vcan0 60A#00EB5910
(1710919361.863000) vcan0 60A#00EB5B10
(1710919361.941000) vcan0 60A#00EB5D10
(1710919362.020000) vcan0 60A#00EB5F10
(1710919362.096000) vcan0 60A#00EB6110
(1710919362.096000) vcan0 201#4020800010F40000
(1710919362.096000) vcan0 700#041E0200
(1710919362.160000) vcan0 60A#00EB6310
(1710919362.240000) vcan0 60A#00EB6510
(1710919362.319000) vcan0 60A#00EB6710
(1710919362.397000) vcan0 60A#00EB6910
(1710919362.460000) vcan0 60A#00EB6B10
(1710919362.537000) vcan0 60A#00EB6D10
(1710919362.616000) vcan0 60A#00EB6F10
(1710919362.692000) vcan0 60A#00EB7110
(1710919362.771000) vcan0 60A#00EB7310
(1710919362.833000) vcan0 60A#00EB7510
(1710919362.911000) vcan0 60A#00EB7710
(1710919362.990000) vcan0 60A#00EB7910
(1710919363.052000) vcan0 60A#00EB7B10
(1710919363.099000) vcan0 201#4020800010F40000
(1710919363.099000) vcan0 700#041E0200
(1710919363.130000) vcan0 60A#00EB7D10
(1710919363.209000) vcan0 60A#00EB7F10
(1710919363.286000) vcan0 60A#00EB8110
(1710919363.365000) vcan0 60A#00EB8310
(1710919363.442000) vcan0 60A#00EB8510
(1710919363.505000) vcan0 60A#00EB8710
(1710919363.583000) vcan0 60A#00EB8910
(1710919363.647000) vcan0 60A#00EB8B10
(1710919363.724000) vcan0 60A#00EB8D10
(1710919363.802000) vcan0 60A#00EB8F10
(1710919363.881000) vcan0 60A#00EB9110
(1710919363.959000) vcan0 60A#00EB9310
(1710919364.020000) vcan0 60A#00EB9510
(1710919364.100000) vcan0 60A#00EB9710
(1710919364.100000) vcan0 201#4020800010F40000
(1710919364.100000) vcan0 700#041E0200
(1710919364.179000) vcan0 60A#00EB9910
(1710919364.256000) vcan0 60A#00EB9B10
(1710919364.320000) vcan0 60A#00EB9D10
(1710919364.396000) vcan0 60A#00EB9F10
(1710919364.474000) vcan0 60A#00EBA110
(1710919364.552000) vcan0 60A#00EBA310
(1710919364.614000) vcan0 60A#00EBA510
(1710919364.693000) vcan0 60A#00EBA710
(1710919364.769000) vcan0 60A#00EBA910
(1710919364.849000) vcan0 60A#00EBAB10
(1710919364.928000) vcan0 60A#00EBAD10
(1710919365.004000) vcan0 60A#00EBAF10
(1710919365.066000) vcan0 60A#00EBB110
(1710919365.097000) vcan0 201#4020800010F40000
(1710919365.097000) vcan0 700#041E0200
(1710919365.145000) vcan0 60A#00EBB310
(1710919365.221000) vcan0 60A#00EBB510
(1710919365.300000) vcan0 60A#00EBB710
(1710919365.363000) vcan0 60A#00EBB910
(1710919365.441000) vcan0 60A#00EBBB10
(1710919365.518000) vcan0 60A#00EBBD10
(1710919365.582000) vcan0 60A#00EBBF10
(1710919365.661000) vcan0 60A#00EBC110
(1710919365.740000) vcan0 60A#00EBC310
(1710919365.819000) vcan0 60A#00EBC510
(1710919365.881000) vcan0 60A#00EBC710
(1710919365.958000) vcan0 60A#00EBC910
(1710919366.035000) vcan0 60A#00EBCB10
(1710919366.098000) vcan0 201#4020800010F40000
(1710919366.098000) vcan0 700#041E0200
(1710919366.114000) vcan0 60A#00EBCD10
(1710919366.193000) vcan0 60A#00EBCF10
(1710919366.255000) vcan0 60A#00EBD110
(1710919366.332000) vcan0 60A#00EBD310
(1710919366.409000) vcan0 60A#00EBD510
(1710919366.486000) vcan0 60A#00EBD710
(1710919366.564000) vcan0 60A#00EBD910
(1710919366.627000) vcan0 60A#00EBDB10
(1710919366.706000) vcan0 60A#00EBDD10
(1710919366.784000) vcan0 60A#00EBDF10
(1710919366.862000) vcan0 60A#00EBE110
(1710919366.924000) vcan0 60A#00EBE310
(1710919367.001000) vcan0 60A#00EBE510
(1710919367.079000) vcan0 60A#00EBE710
(1710919367.110000) vcan0 201#4020800010F40000
(1710919367.110000) vcan0 700#041E0200
(1710919367.157000) vcan0 60A#00EBE910
(1710919367.234000) vcan0 60A#00EBEB10
(1710919367.298000) vcan0 60A#00EBED10
(1710919367.378000) vcan0 60A#00EBEF10
(1710919367.455000) vcan0 60A#00EBF110
(1710919367.532000) vcan0 60A#00EBF310
(1710919367.610000) vcan0 60A#00EBF510
(1710919367.688000) vcan0 60A#00EBF710
(1710919367.750000) vcan0 60A#00EBF910
(1710919367.827000) vcan0 60A#00EBFB10
(1710919367.907000) vcan0 60A#00EBFD10
(1710919367.969000) vcan0 60A#00EBFF10
(1710919368.049000) vcan0 60A#00EC0110
(1710919368.109000) vcan0 201#4020800010F40000
(1710919368.109000) vcan0 700#041E0200
(1710919368.124000) vcan0 60A#00EC0310
(1710919368.201000) vcan0 60A#00EC0510
(1710919368.263000) vcan0 60A#00EC0710
(1710919368.343000) vcan0 60A#00EC0910
(1710919368.422000) vcan0 60A#00EC0B10
(1710919368.498000) vcan0 60A#00EC0D10
(1710919368.561000) vcan0 60A#00EC0F10
(1710919368.640000) vcan0 60A#00EC1110
(1710919368.718000) vcan0 60A#00EC1310
(1710919368.797000) vcan0 60A#00EC1510
(1710919368.860000) vcan0 60A#00EC1710
(1710919368.938000) vcan0 60A#00EC1910
(1710919369.016000) vcan0 60A#00EC1B10
(1710919369.094000) vcan0 60A#00EC1D10
(1710919369.110000) vcan0 201#4020800010F40000
(1710919369.110000) vcan0 700#041E0200
(1710919369.173000) vcan0 60A#00EC1F10
(1710919369.235000) vcan0 60A#00EC2110
(1710919369.313000) vcan0 60A#00EC2310
(1710919369.393000) vcan0 60A#00EC2510
(1710919369.455000) vcan0 60A#00EC2710
(1710919369.533000) vcan0 60A#00EC2910
(1710919369.608000) vcan0 60A#00EC2B10
(1710919369.686000) vcan0 60A#00EC2D10
(1710919369.763000) vcan0 60A#00EC2F10
(1710919369.826000) vcan0 60A#00EC3110
(1710919369.904000) vcan0 60A#00EC3310
(1710919369.982000) vcan0 60A#00EC3510
(1710919370.060000) vcan0 60A#00EC3710
(1710919370.108000) vcan0 201#4020800010F40000
(1710919370.108000) vcan0 700#041E0200
(1710919370.124000) vcan0 60A#00EC3910
(1710919370.201000) vcan0 60A#00EC3B10
(1710919370.278000) vcan0 60A#00EC3D10
(1710919370.356000) vcan0 60A#00EC3F10
(1710919370.419000) vcan0 60A#00EC4110
(1710919370.512000) vcan0 60A#00EC4310
(1710919370.576000) vcan0 60A#00EC4510
(1710919370.655000) vcan0 60A#00EC4710
(1710919370.719000) vcan0 60A#00EC4910
(1710919370.796000) vcan0 60A#00EC4B10
(1710919370.874000) vcan0 60A#00EC4D10
(1710919370.954000) vcan0 60A#00EC4F10
(1710919371.031000) vcan0 60A#00EC5110
(1710919371.093000) vcan0 60A#00EC5310
(1710919371.109000) vcan0 201#4020800010F40000
(1710919371.109000) vcan0 700#041E0200
(1710919371.171000) vcan0 60A#00EC5510
(1710919371.249000) vcan0 60A#00EC5710
(1710919371.328000) vcan0 60A#00EC5910
(1710919371.392000) vcan0 60A#00EC5B10
(1710919371.471000) vcan0 60A#00EC5D10
(1710919371.550000) vcan0 60A#00EC5F10
(1710919371.626000) vcan0 60A#00EC6110
(1710919371.689000) vcan0 60A#00EC6310
(1710919371.767000) vcan0 60A#00EC6510
(1710919371.846000) vcan0 60A#00EC6710
(1710919371.910000) vcan0 60A#00EC6910
(1710919371.988000) vcan0 60A#00EC6B10
(1710919372.066000) vcan0 60A#00EC6D10
(1710919372.114000) vcan0 201#4020800010F40000
(1710919372.114000) vcan0 700#041E0200
(1710919372.145000) vcan0 60A#00EC6F10
(1710919372.223000) vcan0 60A#00EC7110
(1710919372.286000) vcan0 60A#00EC7310
(1710919372.364000) vcan0 60A#00EC7510
(1710919372.441000) vcan0 60A#00EC7710
(1710919372.505000) vcan0 60A#00EC7910
(1710919372.584000) vcan0 60A#00EC7B10
(1710919372.663000) vcan0 60A#00EC7D10
(1710919372.741000) vcan0 60A#00EC7F10
(1710919372.817000) vcan0 60A#00EC8110
(1710919372.879000) vcan0 60A#00EC8310
(1710919372.957000) vcan0 60A#00EC8510
(1710919373.035000) vcan0 60A#00EC8710
(1710919373.111000) vcan0 60A#00EC8910
(1710919373.111000) vcan0 201#4020800010F40000
(1710919373.111000) vcan0 700#041E0200
(1710919373.174000) vcan0 60A#00EC8B10
(1710919373.253000) vcan0 60A#00EC8D10
(1710919373.332000) vcan0 60A#00EC8F10
(1710919373.411000) vcan0 60A#00EC9110
(1710919373.473000) vcan0 60A#00EC9310
(1710919373.550000) vcan0 60A#00EC9510
(1710919373.629000) vcan0 60A#00EC9710
(1710919373.707000) vcan0 60A#00EC9910
(1710919373.770000) vcan0 60A#00EC9B10
(1710919373.846000) vcan0 60A#00EC9D10
(1710919373.925000) vcan0 60A#00EC9F10
(1710919374.002000) vcan0 60A#00ECA110
(1710919374.079000) vcan0 60A#00ECA310
(1710919374.110000) vcan0 201#4020800010F40000
(1710919374.110000) vcan0 700#041E0200
(1710919374.140000) vcan0 60A#00ECA510
(1710919374.219000) vcan0 60A#00ECA710
(1710919374.297000) vcan0 60A#00ECA910
(1710919374.374000) vcan0 60A#00ECAB10
(1710919374.452000) vcan0 60A#00ECAD10
(1710919374.515000) vcan0 60A#00ECAF10
(1710919374.592000) vcan0 60A#00ECB110
(1710919374.670000) vcan0 60A#00ECB310
(1710919374.746000) vcan0 60A#00ECB510
(1710919374.825000) vcan0 60A#00ECB710
(1710919374.888000) vcan0 60A#00ECB910
(1710919374.966000) vcan0 60A#00ECBB10
(1710919375.045000) vcan0 60A#00ECBD10
(1710919375.108000) vcan0 201#4020800010F40000
(1710919375.108000) vcan0 700#041E0200
(1710919375.108000) vcan0 60A#00ECBF10
(1710919375.187000) vcan0 60A#00ECC110
(1710919375.266000) vcan0 60A#00ECC310
(1710919375.345000) vcan0 60A#00ECC510
(1710919375.425000) vcan0 60A#00ECC710
(1710919375.487000) vcan0 60A#00ECC910
(1710919375.566000) vcan0 60A#00ECCB10
(1710919375.642000) vcan0 60A#00ECCD10
(1710919375.704000) vcan0 60A#00ECCF10
(1710919375.781000) vcan0 60A#00ECD110
(1710919375.859000) vcan0 60A#00ECD310
(1710919375.937000) vcan0 60A#00ECD510
(1710919376.017000) vcan0 60A#00ECD710
(1710919376.080000) vcan0 60A#00ECD910
(1710919376.110000) vcan0 201#4020800010F40000
(1710919376.110000) vcan0 700#041E0200
(1710919376.157000) vcan0 60A#00ECDB10
(1710919376.234000) vcan0 60A#00ECDD10
(1710919376.313000) vcan0 60A#00ECDF10
(1710919376.377000) vcan0 60A#00ECE110
(1710919376.454000) vcan0 60A#00ECE310
(1710919376.531000) vcan0 60A#00ECE510
(1710919376.609000) vcan0 60A#00ECE710
(1710919376.671000) vcan0 60A#00ECE910
(1710919376.751000) vcan0 60A#00ECEB10
(1710919376.829000) vcan0 60A#00ECED10
(1710919376.907000) vcan0 60A#00ECEF10
(1710919376.985000) vcan0 60A#00ECF110
(1710919377.047000) vcan0 60A#00ECF310
(1710919377.109000) vcan0 201#4020800010F40000
(1710919377.109000) vcan0 700#041E0200
(1710919377.125000) vcan0 60A#00ECF510
(1710919377.202000) vcan0 60A#00ECF710
(1710919377.279000) vcan0 60A#00ECF910
(1710919377.341000) vcan0 60A#00ECFB10
(1710919377.419000) vcan0 60A#00ECFD10
(1710919377.498000) vcan0 60A#00ECFF10
(1710919377.576000) vcan0 60A#00ED0110
(1710919377.654000) vcan0 60A#00ED0310
(1710919377.716000) vcan0 60A#00ED0510
(1710919377.794000) vcan0 60A#00ED0710
(1710919377.872000) vcan0 60A#00ED0910
(1710919377.951000) vcan0 60A#00ED0B10
(1710919378.014000) vcan0 60A#00ED0D10
(1710919378.092000) vcan0 60A#00ED0F10
(1710919378.106000) vcan0 201#4020800010F40000
(1710919378.106000) vcan0 700#041E0200
(1710919378.169000) vcan0 60A#00ED1110
(1710919378.231000) vcan0 60A#00ED1310
(1710919378.308000) vcan0 60A#00ED1510
(1710919378.387000) vcan0 60A#00ED1710
(1710919378.465000) vcan0 60A#00ED1910
(1710919378.544000) vcan0 60A#00ED1B10
(1710919378.607000) vcan0 60A#00ED1D10
(1710919378.685000) vcan0 60A#00ED1F10
(1710919378.764000) vcan0 60A#00ED2110
(1710919378.843000) vcan0 60A#00ED2310
(1710919378.906000) vcan0 60A#00ED2510
(1710919378.986000) vcan0 60A#00ED2710
(1710919379.064000) vcan0 60A#00ED2910
(1710919379.112000) vcan0 201#4020800010F40000
(1710919379.112000) vcan0 700#041E0200
(1710919379.128000) vcan0 60A#00ED2B10
(1710919379.206000) vcan0 60A#00ED2D10
(1710919379.285000) vcan0 60A#00ED2F10
(1710919379.362000) vcan0 60A#00ED3110
(1710919379.425000) vcan0 60A#00ED3310
(1710919379.503000) vcan0 60A#00ED3510
(1710919379.581000) vcan0 60A#00ED3710
(1710919379.659000) vcan0 60A#00ED3910
(1710919379.723000) vcan0 60A#00ED3B10
(1710919379.801000) vcan0 60A#00ED3D10
(1710919379.879000) vcan0 60A#00ED3F10
(1710919379.956000) vcan0 60A#00ED4110
(1710919380.034000) vcan0 60A#00ED4310
(1710919380.097000) vcan0 60A#00ED4510
(1710919380.112000) vcan0 201#4020800010F40000
(1710919380.112000) vcan0 700#041E0200
(1710919380.176000) vcan0 60A#00ED4710
(1710919380.255000) vcan0 60A#00ED4910
(1710919380.334000) vcan0 60A#00ED4B10
(1710919380.396000) vcan0 60A#00ED4D10
(1710919380.474000) vcan0 60A#00ED4F10
(1710919380.553000) vcan0 60A#00ED5110
(1710919380.631000) vcan0 60A#00ED5310
(1710919380.694000) vcan0 60A#00ED5510
(1710919380.770000) vcan0 60A#00ED5710
(1710919380.848000) vcan0 60A#00ED5910
(1710919380.926000) vcan0 60A#00ED5B10
(1710919381.004000) vcan0 60A#00ED5D10
(1710919381.066000) vcan0 60A#00ED5F10
(1710919381.112000) vcan0 201#4020800010F40000
(1710919381.112000) vcan0 700#041E0200
(1710919381.143000) vcan0 60A#00ED6110
(1710919381.221000) vcan0 60A#00ED6310
(1710919381.301000) vcan0 60A#00ED6510
(1710919381.363000) vcan0 60A#00ED6710
(1710919381.441000) vcan0 60A#00ED6910
(1710919381.520000) vcan0 60A#00ED6B10
(1710919381.583000) vcan0 60A#00ED6D10
(1710919381.677000) vcan0 60A#00ED6F10
(1710919381.741000) vcan0 60A#00ED7110
(1710919381.820000) vcan0 60A#00ED7310
(1710919381.883000) vcan0 60A#00ED7510
(1710919381.960000) vcan0 60A#00ED7710
(1710919382.038000) vcan0 60A#00ED7910
(1710919382.117000) vcan0 201#4020800010F40000
(1710919382.117000) vcan0 700#041E0200
(1710919382.117000) vcan0 60A#00ED7B10
(1710919382.195000) vcan0 60A#00ED7D10
(1710919382.274000) vcan0 60A#00ED7F10
(1710919382.336000) vcan0 60A#00ED8110
(1710919382.415000) vcan0 60A#00ED8310
(1710919382.493000) vcan0 60A#00ED8510
(1710919382.556000) vcan0 60A#00ED8710
(1710919382.634000) vcan0 60A#00ED8910
(1710919382.711000) vcan0 60A#00ED8B10
(1710919382.789000) vcan0 60A#00ED8D10
(1710919382.852000) vcan0 60A#00ED8F10
(1710919382.929000) vcan0 60A#00ED9110
(1710919383.008000) vcan0 60A#00ED9310
(1710919383.085000) vcan0 60A#00ED9510
(1710919383.116000) vcan0 201#4020800010F40000
(1710919383.116000) vcan0 700#041E0200
(1710919383.147000) vcan0 60A#00ED9710
(1710919383.225000) vcan0 60A#00ED9910
(1710919383.303000) vcan0 60A#00ED9B10
(1710919383.380000) vcan0 60A#00ED9D10
(1710919383.458000) vcan0 60A#00ED9F10
(1710919383.537000) vcan0 60A#00EDA110
(1710919383.599000) vcan0 60A#00EDA310
(1710919383.678000) vcan0 60A#00EDA510
(1710919383.756000) vcan0 60A#00EDA710
(1710919383.819000) vcan0 60A#00EDA910
(1710919383.895000) vcan0 60A#00EDAB10
(1710919383.973000) vcan0 60A#00EDAD10
(1710919384.051000) vcan0 60A#00EDAF10
(1710919384.115000) vcan0 201#4020800010F40000
(1710919384.115000) vcan0 700#041E0200
(1710919384.130000) vcan0 60A#00EDB110
(1710919384.208000) vcan0 60A#00EDB310
(1710919384.272000) vcan0 60A#00EDB510
(1710919384.348000) vcan0 60A#00EDB710
(1710919384.426000) vcan0 60A#00EDB910
(1710919384.488000) vcan0 60A#00EDBB10
(1710919384.568000) vcan0 60A#00EDBD10
(1710919384.645000) vcan0 60A#00EDBF10
(1710919384.722000) vcan0 60A#00EDC110
(1710919384.800000) vcan0 60A#00EDC310
(1710919384.862000) vcan0 60A#00EDC510
(1710919384.940000) vcan0 60A#00EDC710
(1710919385.018000) vcan0 60A#00EDC910
(1710919385.096000) vcan0 60A#00EDCB10
(1710919385.112000) vcan0 201#4020800010F40000
(1710919385.112000) vcan0 700#041E0200
(1710919385.174000) vcan0 60A#00EDCD10
(1710919385.236000) vcan0 60A#00EDCF10
(1710919385.314000) vcan0 60A#00EDD110
(1710919385.392000) vcan0 60A#00EDD310
(1710919385.471000) vcan0 60A#00EDD510
(1710919385.549000) vcan0 60A#00EDD710
(1710919385.611000) vcan0 60A#00EDD910
(1710919385.690000) vcan0 60A#00EDDB10
(1710919385.767000) vcan0 60A#00EDDD10
(1710919385.845000) vcan0 60A#00EDDF10
(1710919385.908000) vcan0 60A#00EDE110
(1710919385.986000) vcan0 60A#00EDE310
(1710919386.064000) vcan0 60A#00EDE510
(1710919386.111000) vcan0 201#4020800010F40000
(1710919386.111000) vcan0 700#041E0200
(1710919386.142000) vcan0 60A#00EDE710
(1710919386.204000) vcan0 60A#00EDE910
(1710919386.282000) vcan0 60A#00EDEB10
(1710919386.361000) vcan0 60A#00EDED10
(1710919386.439000) vcan0 60A#00EDEF10
(1710919386.502000) vcan0 60A#00EDF110
(1710919386.578000) vcan0 60A#00EDF310
(1710919386.657000) vcan0 60A#00EDF510
(1710919386.735000) vcan0 60A#00EDF710
(1710919386.799000) vcan0 60A#00EDF910
(1710919386.876000) vcan0 60A#00EDFB10
(1710919386.954000) vcan0 60A#00EDFD10
(1710919387.032000) vcan0 60A#00EDFF10
(1710919387.110000) vcan0 60A#00EE0110
(1710919387.110000) vcan0 201#4020800010F40000
(1710919387.110000) vcan0 700#041E0200
(1710919387.172000) vcan0 60A#00EE0310
(1710919387.251000) vcan0 60A#00EE0510
(1710919387.326000) vcan0 60A#00EE0710
(1710919387.405000) vcan0 60A#00EE0910
(1710919387.469000) vcan0 60A#00EE0B10
(1710919387.546000) vcan0 60A#00EE0D10
(1710919387.625000) vcan0 60A#00EE0F10
(1710919387.702000) vcan0 60A#00EE1110
(1710919387.780000) vcan0 60A#00EE1310
(1710919387.856000) vcan0 60A#00EE1510
(1710919387.918000) vcan0 60A#00EE1710
(1710919387.998000) vcan0 60A#00EE1910
(1710919388.078000) vcan0 60A#00EE1B10
(1710919388.108000) vcan0 201#4020800010F40000
(1710919388.108000) vcan0 700#041E0200
(1710919388.139000) vcan0 60A#00EE1D10
(1710919388.216000) vcan0 60A#00EE1F10
(1710919388.296000) vcan0 60A#00EE2110
(1710919388.373000) vcan0 60A#00EE2310
(1710919388.452000) vcan0 60A#00EE2510
(1710919388.516000) vcan0 60A#00EE2710
(1710919388.594000) vcan0 60A#00EE2910
(1710919388.672000) vcan0 60A#00EE2B10
(1710919388.750000) vcan0 60A#00EE2D10
(1710919388.811000) vcan0 60A#00EE2F10
(1710919388.889000) vcan0 60A#00EE3110
(1710919388.967000) vcan0 60A#00EE3310
(1710919389.044000) vcan0 60A#00EE3510
(1710919389.106000) vcan0 60A#00EE3710
(1710919389.106000) vcan0 201#4020800010F40000
(1710919389.106000) vcan0 700#041E0200
(1710919389.184000) vcan0 60A#00EE3910
(1710919389.262000) vcan0 60A#00EE3B10
(1710919389.341000) vcan0 60A#00EE3D10
(1710919389.403000) vcan0 60A#00EE3F10
(1710919389.482000) vcan0 60A#00EE4110
(1710919389.561000) vcan0 60A#00EE4310
(1710919389.641000) vcan0 60A#00EE4510
(1710919389.705000) vcan0 60A#00EE4710
(1710919389.782000) vcan0 60A#00EE4910
(1710919389.860000) vcan0 60A#00EE4B10
(1710919389.937000) vcan0 60A#00EE4D10
(1710919390.000000) vcan0 60A#00EE4F10
(1710919390.078000) vcan0 60A#00EE5110
(1710919390.109000) vcan0 201#4020800010F40000
(1710919390.109000) vcan0 700#041E0200
(1710919390.156000) vcan0 60A#00EE5310
(1710919390.235000) vcan0 60A#00EE5510
(1710919390.297000) vcan0 60A#00EE5710
(1710919390.375000) vcan0 60A#00EE5910
(1710919390.453000) vcan0 60A#00EE5B10
(1710919390.530000) vcan0 60A#00EE5D10
(1710919390.608000) vcan0 60A#00EE5F10
(1710919390.671000) vcan0 60A#00EE6110
(1710919390.748000) vcan0 60A#00EE6310
(1710919390.827000) vcan0 60A#00EE6510
(1710919390.905000) vcan0 60A#00EE6710
(1710919390.967000) vcan0 60A#00EE6910
(1710919391.061000) vcan0 60A#00EE6B10
(1710919391.109000) vcan0 201#4020800010F40000
(1710919391.109000) vcan0 700#041E0200
(1710919391.125000) vcan0 60A#00EE6D10
(1710919391.202000) vcan0 60A#00EE6F10
(1710919391.265000) vcan0 60A#00EE7110
(1710919391.342000) vcan0 60A#00EE7310
(1710919391.419000) vcan0 60A#00EE7510
(1710919391.497000) vcan0 60A#00EE7710
(1710919391.576000) vcan0 60A#00EE7910
(1710919391.639000) vcan0 60A#00EE7B10
(1710919391.716000) vcan0 60A#00EE7D10
(1710919391.793000) vcan0 60A#00EE7F10
(1710919391.871000) vcan0 60A#00EE8110
(1710919391.950000) vcan0 60A#00EE8310
(1710919392.013000) vcan0 60A#00EE8510
(1710919392.092000) vcan0 60A#00EE8710
(1710919392.108000) vcan0 201#4020800010F40000
(1710919392.108000) vcan0 700#041E0200
(1710919392.171000) vcan0 60A#00EE8910
(1710919392.248000) vcan0 60A#00EE8B10
(1710919392.312000) vcan0 60A#00EE8D10
(1710919392.390000) vcan0 60A#00EE8F10
(1710919392.468000) vcan0 60A#00EE9110
(1710919392.546000) vcan0 60A#00EE9310
(1710919392.610000) vcan0 60A#00EE9510
(1710919392.689000) vcan0 60A#00EE9710
(1710919392.766000) vcan0 60A#00EE9910
(1710919392.830000) vcan0 60A#00EE9B10
(1710919392.907000) vcan0 60A#00EE9D10
(1710919392.986000) vcan0 60A#00EE9F10
(1710919393.063000) vcan0 60A#00EEA110
(1710919393.110000) vcan0 201#4020800010F40000
(1710919393.110000) vcan0 700#041E0200
(1710919393.141000) vcan0 60A#00EEA310
(1710919393.203000) vcan0 60A#00EEA510
(1710919393.282000) vcan0 60A#00EEA710
(1710919393.360000) vcan0 60A#00EEA910
(1710919393.437000) vcan0 60A#00EEAB10
(1710919393.499000) vcan0 60A#00EEAD10
(1710919393.577000) vcan0 60A#00EEAF10
(1710919393.655000) vcan0 60A#00EEB110
(1710919393.732000) vcan0 60A#00EEB310
(1710919393.809000) vcan0 60A#00EEB510
(1710919393.873000) vcan0 60A#00EEB710
(1710919393.951000) vcan0 60A#00EEB910
(1710919394.030000) vcan0 60A#00EEBB10
(1710919394.108000) vcan0 60A#00EEBD10
(1710919394.108000) vcan0 201#4020800010F40000
(1710919394.108000) vcan0 700#041E0200
(1710919394.185000) vcan0 60A#00EEBF10
(1710919394.247000) vcan0 60A#00EEC110
(1710919394.326000) vcan0 60A#00EEC310
(1710919394.404000) vcan0 60A#00EEC510
(1710919394.467000) vcan0 60A#00EEC710
(1710919394.545000) vcan0 60A#00EEC910
(1710919394.622000) vcan0 60A#00EECB10
(1710919394.700000) vcan0 60A#00EECD10
(1710919394.778000) vcan0 60A#00EECF10
(1710919394.856000) vcan0 60A#00EED110
(1710919394.917000) vcan0 60A#00EED310
(1710919394.995000) vcan0 60A#00EED510
(1710919395.072000) vcan0 60A#00EED710
(1710919395.120000) vcan0 201#4020800010F40000
(1710919395.120000) vcan0 700#041E0200
(1710919395.151000) vcan0 60A#00EED910
(1710919395.213000) vcan0 60A#00EEDB10
(1710919395.291000) vcan0 60A#00EEDD10
(1710919395.370000) vcan0 60A#00EEDF10
(1710919395.434000) vcan0 60A#00EEE110
(1710919395.512000) vcan0 60A#00EEE310
(1710919395.588000) vcan0 60A#00EEE510
(1710919395.665000) vcan0 60A#00EEE710
(1710919395.744000) vcan0 60A#00EEE910
(1710919395.806000) vcan0 60A#00EEEB10
(1710919395.883000) vcan0 60A#00EEED10
(1710919395.963000) vcan0 60A#00EEEF10
(1710919396.026000) vcan0 60A#00EEF110
(1710919396.104000) vcan0 60A#00EEF310
(1710919396.119000) vcan0 201#4020800010F40000
(1710919396.119000) vcan0 700#041E0200
(1710919396.180000) vcan0 60A#00EEF510
(1710919396.260000) vcan0 60A#00EEF710
(1710919396.338000) vcan0 60A#00EEF910
(1710919396.400000) vcan0 60A#00EEFB10
(1710919396.477000) vcan0 60A#00EEFD10
(1710919396.556000) vcan0 60A#00EEFF10
(1710919396.633000) vcan0 60A#00EF0110
(1710919396.696000) vcan0 60A#00EF0310
(1710919396.775000) vcan0 60A#00EF0510
(1710919396.853000) vcan0 60A#00EF0710
(1710919396.930000) vcan0 60A#00EF0910
(1710919397.009000) vcan0 60A#00EF0B10
(1710919397.088000) vcan0 60A#00EF0D10
(1710919397.119000) vcan0 201#4020800010F40000
(1710919397.119000) vcan0 700#041E0200
(1710919397.149000) vcan0 60A#00EF0F10
(1710919397.226000) vcan0 60A#00EF1110
(1710919397.304000) vcan0 60A#00EF1310
(1710919397.367000) vcan0 60A#00EF1510
(1710919397.446000) vcan0 60A#00EF1710
(1710919397.524000) vcan0 60A#00EF1910
(1710919397.601000) vcan0 60A#00EF1B10
(1710919397.663000) vcan0 60A#00EF1D10
(1710919397.742000) vcan0 60A#00EF1F10
(1710919397.819000) vcan0 60A#00EF2110
(1710919397.896000) vcan0 60A#00EF2310
(1710919397.974000) vcan0 60A#00EF2510
(1710919398.036000) vcan0 60A#00EF2710
(1710919398.114000) vcan0 201#4020800010F40000
(1710919398.114000) vcan0 700#041E0200
(1710919398.114000) vcan0 60A#00EF2910
(1710919398.191000) vcan0 60A#00EF2B10
(1710919398.269000) vcan0 60A#00EF2D10
(1710919398.347000) vcan0 60A#00EF2F10
(1710919398.410000) vcan0 60A#00EF3110
(1710919398.489000) vcan0 60A#00EF3310
(1710919398.567000) vcan0 60A#00EF3510
(1710919398.646000) vcan0 60A#00EF3710
(1710919398.707000) vcan0 60A#00EF3910
(1710919398.801000) vcan0 60A#00EF3B10
(1710919398.864000) vcan0 60A#00EF3D10
(1710919398.943000) vcan0 60A#00EF3F10
(1710919399.004000) vcan0 60A#00EF4110
(1710919399.080000) vcan0 60A#00EF4310
(1710919399.111000) vcan0 201#4020800010F40000
(1710919399.111000) vcan0 700#041E0200
(1710919399.158000) vcan0 60A#00EF4510
(1710919399.236000) vcan0 60A#00EF4710
(1710919399.315000) vcan0 60A#00EF4910
(1710919399.379000) vcan0 60A#00EF4B10
(1710919399.456000) vcan0 60A#00EF4D10
(1710919399.536000) vcan0 60A#00EF4F10
(1710919399.597000) vcan0 60A#00EF5110
(1710919399.675000) vcan0 60A#00EF5310
(1710919399.753000) vcan0 60A#00EF5510
(1710919399.830000) vcan0 60A#00EF5710
(1710919399.908000) vcan0 60A#00EF5910
(1710919399.971000) vcan0 60A#00EF5B10
(1710919400.049000) vcan0 60A#00EF5D10
(1710919400.113000) vcan0 201#4020800010F40000
(1710919400.113000) vcan0 700#041E0200
(1710919400.129000) vcan0 60A#00EF5F10
(1710919400.207000) vcan0 60A#00EF6110
(1710919400.269000) vcan0 60A#00EF6310
(1710919400.347000) vcan0 60A#00EF6510
(1710919400.424000) vcan0 60A#00EF6710
(1710919400.503000) vcan0 60A#00EF6910
(1710919400.565000) vcan0 60A#00EF6B10
(1710919400.644000) vcan0 60A#00EF6D10
(1710919400.721000) vcan0 60A#00EF6F10
(1710919400.799000) vcan0 60A#00EF7110
(1710919400.877000) vcan0 60A#00EF7310
(1710919400.940000) vcan0 60A#00EF7510
(1710919401.019000) vcan0 60A#00EF7710
(1710919401.095000) vcan0 60A#00EF7910
(1710919401.110000) vcan0 201#4020800010F40000
(1710919401.126000) vcan0 700#041E0200
(1710919401.174000) vcan0 60A#00EF7B10
(1710919401.237000) vcan0 60A#00EF7D10
(1710919401.313000) vcan0 60A#00EF7F10
(1710919401.391000) vcan0 60A#00EF8110
(1710919401.470000) vcan0 60A#00EF8310
(1710919401.549000) vcan0 60A#00EF8510
(1710919401.611000) vcan0 60A#00EF8710
(1710919401.688000) vcan0 60A#00EF8910
(1710919401.765000) vcan0 60A#00EF8B10
(1710919401.844000) vcan0 60A#00EF8D10
(1710919401.906000) vcan0 60A#00EF8F10
(1710919401.983000) vcan0 60A#00EF9110
(1710919402.061000) vcan0 60A#00EF9310
(1710919402.109000) vcan0 201#4020800010F40000
(1710919402.109000) vcan0 700#041E0200
(1710919402.141000) vcan0 60A#00EF9510
(1710919402.218000) vcan0 60A#00EF9710
(1710919402.281000) vcan0 60A#00EF9910
(1710919402.358000) vcan0 60A#00EF9B10
(1710919402.435000) vcan0 60A#00EF9D10
(1710919402.511000) vcan0 60A#00EF9F10
(1710919402.574000) vcan0 60A#00EFA110
(1710919402.652000) vcan0 60A#00EFA310
(1710919402.731000) vcan0 60A#00EFA510
(1710919402.809000) vcan0 60A#00EFA710
(1710919402.886000) vcan0 60A#00EFA910
(1710919402.948000) vcan0 60A#00EFAB10
(1710919403.025000) vcan0 60A#00EFAD10
(1710919403.102000) vcan0 60A#00EFAF10
(1710919403.118000) vcan0 201#4020800010F40000
(1710919403.118000) vcan0 700#041E0200
(1710919403.181000) vcan0 60A#00EFB110
(1710919403.260000) vcan0 60A#00EFB310
(1710919403.322000) vcan0 60A#00EFB510
(1710919403.400000) vcan0 60A#00EFB710
(1710919403.478000) vcan0 60A#00EFB910
(1710919403.557000) vcan0 60A#00EFBB10
(1710919403.620000) vcan0 60A#00EFBD10
(1710919403.697000) vcan0 60A#00EFBF10
(1710919403.775000) vcan0 60A#00EFC110
(1710919403.852000) vcan0 60A#00EFC310
(1710919403.931000) vcan0 60A#00EFC510
(1710919403.992000) vcan0 60A#00EFC710
(1710919404.071000) vcan0 60A#00EFC910
(1710919404.119000) vcan0 201#4020800010F40000
(1710919404.119000) vcan0 700#041E0200
(1710919404.150000) vcan0 60A#00EFCB10
(1710919404.213000) vcan0 60A#00EFCD10
(1710919404.293000) vcan0 60A#00EFCF10
(1710919404.371000) vcan0 60A#00EFD110
(1710919404.448000) vcan0 60A#00EFD310
(1710919404.525000) vcan0 60A#00EFD510
(1710919404.588000) vcan0 60A#00EFD710
(1710919404.665000) vcan0 60A#00EFD910
(1710919404.743000) vcan0 60A#00EFDB10
(1710919404.821000) vcan0 60A#00EFDD10
(1710919404.900000) vcan0 60A#00EFDF10
(1710919404.962000) vcan0 60A#00EFE110
(1710919405.041000) vcan0 60A#00EFE310
(1710919405.120000) vcan0 60A#00EFE510
(1710919405.120000) vcan0 201#4020800010F40000
(1710919405.120000) vcan0 700#041E0200
(1710919405.199000) vcan0 60A#00EFE710
(1710919405.261000) vcan0 60A#00EFE910
(1710919405.340000) vcan0 60A#00EFEB10
(1710919405.417000) vcan0 60A#00EFED10
(1710919405.493000) vcan0 60A#00EFEF10
(1710919405.555000) vcan0 60A#00EFF110
(1710919405.632000) vcan0 60A#00EFF310
(1710919405.710000) vcan0 60A#00EFF510
(1710919405.773000) vcan0 60A#00EFF710
(1710919405.852000) vcan0 60A#00EFF910
(1710919405.931000) vcan0 60A#00EFFB10
(1710919406.007000) vcan0 60A#00EFFD10
(1710919406.085000) vcan0 60A#00EFFF10
(1710919406.117000) vcan0 201#4020800010F40000
(1710919406.117000) vcan0 700#041E0200
(1710919406.164000) vcan0 60A#00F00110
(1710919406.227000) vcan0 60A#00F00310
(1710919406.305000) vcan0 60A#00F00510
(1710919406.384000) vcan0 60A#00F00710
(1710919406.462000) vcan0 60A#00F00910
(1710919406.539000) vcan0 60A#00F00B10
(1710919406.617000) vcan0 60A#00F00D10
(1710919406.677000) vcan0 60A#00F00F10
(1710919406.754000) vcan0 60A#00F01110
(1710919406.831000) vcan0 60A#00F01310
(1710919406.907000) vcan0 60A#00F01510
(1710919406.970000) vcan0 60A#00F01710
(1710919407.050000) vcan0 60A#00F01910
(1710919407.112000) vcan0 201#4020800010F40000
(1710919407.112000) vcan0 700#041E0200
(1710919407.127000) vcan0 60A#00F01B10
(1710919407.205000) vcan0 60A#00F01D10
(1710919407.267000) vcan0 60A#00F01F10
(1710919407.347000) vcan0 60A#00F02110
(1710919407.425000) vcan0 60A#00F02310
(1710919407.502000) vcan0 60A#00F02510
(1710919407.580000) vcan0 60A#00F02710
(1710919407.643000) vcan0 60A#00F02910
(1710919407.720000) vcan0 60A#00F02B10
(1710919407.796000) vcan0 60A#00F02D10
(1710919407.875000) vcan0 60A#00F02F10
(1710919407.952000) vcan0 60A#00F03110
(1710919408.015000) vcan0 60A#00F03310
(1710919408.093000) vcan0 60A#00F03510
(1710919408.124000) vcan0 201#4020800010F40000
(1710919408.124000) vcan0 700#041E0200
(1710919408.170000) vcan0 60A#00F03710
(1710919408.250000) vcan0 60A#00F03910
(1710919408.312000) vcan0 60A#00F03B10
(1710919408.389000) vcan0 60A#00F03D10
(1710919408.468000) vcan0 60A#00F03F10
(1710919408.546000) vcan0 60A#00F04110
(1710919408.607000) vcan0 60A#00F04310
(1710919408.685000) vcan0 60A#00F04510
(1710919408.762000) vcan0 60A#00F04710
(1710919408.841000) vcan0 60A#00F04910
(1710919408.919000) vcan0 60A#00F04B10
(1710919408.982000) vcan0 60A#00F04D10
(1710919409.061000) vcan0 60A#00F04F10
(1710919409.122000) vcan0 201#4020800010F40000
(1710919409.122000) vcan0 700#041E0200
(1710919409.138000) vcan0 60A#00F05110
(1710919409.215000) vcan0 60A#00F05310
(1710919409.292000) vcan0 60A#00F05510
(1710919409.356000) vcan0 60A#00F05710
(1710919409.434000) vcan0 60A#00F05910
(1710919409.512000) vcan0 60A#00F05B10
(1710919409.592000) vcan0 60A#00F05D10
(1710919409.670000) vcan0 60A#00F05F10
(1710919409.732000) vcan0 60A#00F06110
(1710919409.811000) vcan0 60A#00F06310
(1710919409.888000) vcan0 60A#00F06510
(1710919409.951000) vcan0 60A#00F06710
(1710919410.030000) vcan0 60A#00F06910
(1710919410.108000) vcan0 60A#00F06B10
(1710919410.123000) vcan0 201#4020800010F40000
(1710919410.123000) vcan0 700#041E0200
(1710919410.185000) vcan0 60A#00F06D10
(1710919410.264000) vcan0 60A#00F06F10
(1710919410.325000) vcan0 60A#00F07110
(1710919410.403000) vcan0 60A#00F07310
(1710919410.480000) vcan0 60A#00F07510
(1710919410.545000) vcan0 60A#00F07710
(1710919410.624000) vcan0 60A#00F07910
(1710919410.701000) vcan0 60A#00F07B10
(1710919410.779000) vcan0 60A#00F07D10
(1710919410.857000) vcan0 60A#00F07F10
(1710919410.935000) vcan0 60A#00F08110
(1710919410.997000) vcan0 60A#00F08310
(1710919411.075000) vcan0 60A#00F08510
(1710919411.121000) vcan0 201#4020800010F40000
(1710919411.121000) vcan0 700#041E0200
(1710919411.152000) vcan0 60A#00F08710
(1710919411.231000) vcan0 60A#00F08910
(1710919411.293000) vcan0 60A#00F08B10
(1710919411.370000) vcan0 60A#00F08D10
(1710919411.449000) vcan0 60A#00F08F10
(1710919411.526000) vcan0 60A#00F09110
(1710919411.604000) vcan0 60A#00F09310
(1710919411.680000) vcan0 60A#00F09510
(1710919411.743000) vcan0 60A#00F09710
(1710919411.819000) vcan0 60A#00F09910
(1710919411.898000) vcan0 60A#00F09B10
(1710919411.961000) vcan0 60A#00F09D10
(1710919412.038000) vcan0 60A#00F09F10
(1710919412.114000) vcan0 60A#00F0A110
(1710919412.114000) vcan0 201#4020800010F40000
(1710919412.114000) vcan0 700#041E0200
(1710919412.192000) vcan0 60A#00F0A310
(1710919412.268000) vcan0 60A#00F0A510
(1710919412.346000) vcan0 60A#00F0A710
(1710919412.409000) vcan0 60A#00F0A910
(1710919412.487000) vcan0 60A#00F0AB10
(1710919412.565000) vcan0 60A#00F0AD10
(1710919412.644000) vcan0 60A#00F0AF10
(1710919412.706000) vcan0 60A#00F0B110
(1710919412.782000) vcan0 60A#00F0B310
(1710919412.859000) vcan0 60A#00F0B510
(1710919412.935000) vcan0 60A#00F0B710
(1710919413.014000) vcan0 60A#00F0B910
(1710919413.078000) vcan0 60A#00F0BB10
(1710919413.124000) vcan0 201#4020800010F40000
(1710919413.124000) vcan0 700#041E0200
(1710919413.154000) vcan0 60A#00F0BD10
(1710919413.231000) vcan0 60A#00F0BF10
(1710919413.311000) vcan0 60A#00F0C110
(1710919413.387000) vcan0 60A#00F0C310
(1710919413.466000) vcan0 60A#00F0C510
(1710919413.544000) vcan0 60A#00F0C710
(1710919413.605000) vcan0 60A#00F0C910
(1710919413.684000) vcan0 60A#00F0CB10
(1710919413.745000) vcan0 60A#00F0CD10
(1710919413.824000) vcan0 60A#00F0CF10
(1710919413.904000) vcan0 60A#00F0D110
(1710919413.982000) vcan0 60A#00F0D310
(1710919414.059000) vcan0 60A#00F0D510
(1710919414.121000) vcan0 201#4020800010F40000
(1710919414.121000) vcan0 700#041E0200
(1710919414.136000) vcan0 60A#00F0D710
(1710919414.199000) vcan0 60A#00F0D910
(1710919414.276000) vcan0 60A#00F0DB10
(1710919414.354000) vcan0 60A#00F0DD10
(1710919414.417000) vcan0 60A#00F0DF10
(1710919414.495000) vcan0 60A#00F0E110
(1710919414.574000) vcan0 60A#00F0E310
(1710919414.650000) vcan0 60A#00F0E510
(1710919414.729000) vcan0 60A#00F0E710
(1710919414.791000) vcan0 60A#00F0E910
(1710919414.870000) vcan0 60A#00F0EB10
(1710919414.948000) vcan0 60A#00F0ED10
(1710919415.025000) vcan0 60A#00F0EF10
(1710919415.101000) vcan0 60A#00F0F110
(1710919415.117000) vcan0 201#4020800010F40000
(1710919415.117000) vcan0 700#041E0200
(1710919415.164000) vcan0 60A#00F0F310
(1710919415.241000) vcan0 60A#00F0F510
(1710919415.319000) vcan0 60A#00F0F710
(1710919415.383000) vcan0 60A#00F0F910
(1710919415.462000) vcan0 60A#00F0FB10
(1710919415.538000) vcan0 60A#00F0FD10
(1710919415.616000) vcan0 60A#00F0FF10
(1710919415.695000) vcan0 60A#00F10110
(1710919415.759000) vcan0 60A#00F10310
(1710919415.838000) vcan0 60A#00F10510
(1710919415.916000) vcan0 60A#00F10710
(1710919415.978000) vcan0 60A#00F10910
(1710919416.056000) vcan0 60A#00F10B10
(1710919416.120000) vcan0 201#4020800010F40000
(1710919416.120000) vcan0 700#041E0200
(1710919416.135000) vcan0 60A#00F10D10
(1710919416.213000) vcan0 60A#00F10F10
(1710919416.290000) vcan0 60A#00F11110
(1710919416.369000) vcan0 60A#00F11310
(1710919416.431000) vcan0 60A#00F11510
(1710919416.511000) vcan0 60A#00F11710
(1710919416.591000) vcan0 60A#00F11910
(1710919416.653000) vcan0 60A#00F11B10
(1710919416.733000) vcan0 60A#00F11D10
(1710919416.813000) vcan0 60A#00F11F10
(1710919416.876000) vcan0 60A#00F12110
(1710919416.955000) vcan0 60A#00F12310
(1710919417.034000) vcan0 60A#00F12510
(1710919417.095000) vcan0 60A#00F12710
(1710919417.127000) vcan0 201#4020800010F40000
(1710919417.127000) vcan0 700#041E0200
(1710919417.174000) vcan0 60A#00F12910
(1710919417.250000) vcan0 60A#00F12B10
(1710919417.328000) vcan0 60A#00F12D10
(1710919417.407000) vcan0 60A#00F12F10
(1710919417.470000) vcan0 60A#00F13110
(1710919417.548000) vcan0 60A#00F13310
(1710919417.627000) vcan0 60A#00F13510
(1710919417.705000) vcan0 60A#00F13710
(1710919417.766000) vcan0 60A#00F13910
(1710919417.842000) vcan0 60A#00F13B10
(1710919417.919000) vcan0 60A#00F13D10
(1710919417.996000) vcan0 60A#00F13F10
(1710919418.076000) vcan0 60A#00F14110
(1710919418.123000) vcan0 201#4020800010F40000
(1710919418.123000) vcan0 700#041E0200
(1710919418.138000) vcan0 60A#00F14310
(1710919418.216000) vcan0 60A#00F14510
(1710919418.294000) vcan0 60A#00F14710
(1710919418.372000) vcan0 60A#00F14910
(1710919418.435000) vcan0 60A#00F14B10
(1710919418.513000) vcan0 60A#00F14D10
(1710919418.590000) vcan0 60A#00F14F10
(1710919418.668000) vcan0 60A#00F15110
(1710919418.745000) vcan0 60A#00F15310
(1710919418.806000) vcan0 60A#00F15510
(1710919418.885000) vcan0 60A#00F15710
(1710919418.964000) vcan0 60A#00F15910
(1710919419.027000) vcan0 60A#00F15B10
(1710919419.106000) vcan0 60A#00F15D10
(1710919419.122000) vcan0 201#4020800010F40000
(1710919419.122000) vcan0 700#041E0200
(1710919419.183000) vcan0 60A#00F15F10
(1710919419.261000) vcan0 60A#00F16110
(1710919419.339000) vcan0 60A#00F16310
(1710919419.403000) vcan0 60A#00F16510
(1710919419.480000) vcan0 60A#00F16710
(1710919419.558000) vcan0 60A#00F16910
(1710919419.636000) vcan0 60A#00F16B10
(1710919419.698000) vcan0 60A#00F16D10
(1710919419.774000) vcan0 60A#00F16F10
(1710919419.852000) vcan0 60A#00F17110
(1710919419.930000) vcan0 60A#00F17310
(1710919420.009000) vcan0 60A#00F17510
(1710919420.086000) vcan0 60A#00F17710
(1710919420.117000) vcan0 201#4020800010F40000
(1710919420.117000) vcan0 700#041E0200
(1710919420.165000) vcan0 60A#00F17910
(1710919420.229000) vcan0 60A#00F17B10
(1710919420.307000) vcan0 60A#00F17D10
(1710919420.385000) vcan0 60A#00F17F10
(1710919420.448000) vcan0 60A#00F18110
(1710919420.526000) vcan0 60A#00F18310
(1710919420.604000) vcan0 60A#00F18510
(1710919420.668000) vcan0 60A#00F18710
(1710919420.744000) vcan0 60A#00F18910
(1710919420.822000) vcan0 60A#00F18B10
(1710919420.900000) vcan0 60A#00F18D10
(1710919420.979000) vcan0 60A#00F18F10
(1710919421.041000) vcan0 60A#00F19110
(1710919421.118000) vcan0 60A#00F19310
(1710919421.118000) vcan0 201#4020800010F40000
(1710919421.118000) vcan0 700#041E0200
(1710919421.195000) vcan0 60A#00F19510
(1710919421.272000) vcan0 60A#00F19710
(1710919421.336000) vcan0 60A#00F19910
(1710919421.414000) vcan0 60A#00F19B10
(1710919421.492000) vcan0 60A#00F19D10
(1710919421.571000) vcan0 60A#00F19F10
(1710919421.649000) vcan0 60A#00F1A110
(1710919421.711000) vcan0 60A#00F1A310
(1710919421.788000) vcan0 60A#00F1A510
(1710919421.865000) vcan0 60A#00F1A710
(1710919421.943000) vcan0 60A#00F1A910
(1710919422.006000) vcan0 60A#00F1AB10
(1710919422.084000) vcan0 60A#00F1AD10
(1710919422.116000) vcan0 201#4020800010F40000
(1710919422.116000) vcan0 700#041E0200
(1710919422.161000) vcan0 60A#00F1AF10
(1710919422.240000) vcan0 60A#00F1B110
(1710919422.318000) vcan0 60A#00F1B310
(1710919422.380000) vcan0 60A#00F1B510
(1710919422.458000) vcan0 60A#00F1B710
(1710919422.538000) vcan0 60A#00F1B910
(1710919422.615000) vcan0 60A#00F1BB10
(1710919422.677000) vcan0 60A#00F1BD10
(1710919422.755000) vcan0 60A#00F1BF10
(1710919422.832000) vcan0 60A#00F1C110
(1710919422.910000) vcan0 60A#00F1C310
(1710919422.990000) vcan0 60A#00F1C510
(1710919423.052000) vcan0 60A#00F1C710
(1710919423.129000) vcan0 201#4020800010F40000
(1710919423.129000) vcan0 700#041E0200
(1710919423.129000) vcan0 60A#00F1C910
(1710919423.208000) vcan0 60A#00F1CB10
(1710919423.270000) vcan0 60A#00F1CD10
(1710919423.347000) vcan0 60A#00F1CF10
(1710919423.424000) vcan0 60A#00F1D110
(1710919423.504000) vcan0 60A#00F1D310
(1710919423.584000) vcan0 60A#00F1D510
(1710919423.647000) vcan0 60A#00F1D710
(1710919423.723000) vcan0 60A#00F1D910
(1710919423.802000) vcan0 60A#00F1DB10
(1710919423.866000) vcan0 60A#00F1DD10
(1710919423.945000) vcan0 60A#00F1DF10
(1710919424.022000) vcan0 60A#00F1E110
(1710919424.099000) vcan0 60A#00F1E310
(1710919424.114000) vcan0 201#4020800010F40000
(1710919424.114000) vcan0 700#041E0200
(1710919424.176000) vcan0 60A#00F1E510
(1710919424.239000) vcan0 60A#00F1E710
(1710919424.333000) vcan0 60A#00F1E910
(1710919424.395000) vcan0 60A#00F1EB10
(1710919424.472000) vcan0 60A#00F1ED10
(1710919424.550000) vcan0 60A#00F1EF10
(1710919424.613000) vcan0 60A#00F1F110
(1710919424.693000) vcan0 60A#00F1F310
(1710919424.769000) vcan0 60A#00F1F510
(1710919424.845000) vcan0 60A#00F1F710
(1710919424.925000) vcan0 60A#00F1F910
(1710919424.987000) vcan0 60A#00F1FB10
(1710919425.064000) vcan0 60A#00F1FD10
(1710919425.127000) vcan0 201#4020800010F40000
(1710919425.127000) vcan0 700#041E0200
(1710919425.142000) vcan0 60A#00F1FF10
(1710919425.206000) vcan0 60A#00F20110
(1710919425.282000) vcan0 60A#00F20310
(1710919425.359000) vcan0 60A#00F20510
(1710919425.438000) vcan0 60A#00F20710
(1710919425.516000) vcan0 60A#00F20910
(1710919425.594000) vcan0 60A#00F20B10
(1710919425.657000) vcan0 60A#00F20D10
(1710919425.734000) vcan0 60A#00F20F10
(1710919425.813000) vcan0 60A#00F21110
(1710919425.875000) vcan0 60A#00F21310
(1710919425.953000) vcan0 60A#00F21510
(1710919426.031000) vcan0 60A#00F21710
(1710919426.110000) vcan0 60A#00F21910
(1710919426.125000) vcan0 201#4020800010F40000
(1710919426.125000) vcan0 700#041E0200
(1710919426.186000) vcan0 60A#00F21B10
(1710919426.265000) vcan0 60A#00F21D10
(1710919426.327000) vcan0 60A#00F21F10
(1710919426.405000) vcan0 60A#00F22110
(1710919426.481000) vcan0 60A#00F22310
(1710919426.560000) vcan0 60A#00F22510
(1710919426.621000) vcan0 60A#00F22710
(1710919426.698000) vcan0 60A#00F22910
(1710919426.778000) vcan0 60A#00F22B10
(1710919426.855000) vcan0 60A#00F22D10
(1710919426.933000) vcan0 60A#00F22F10
(1710919427.011000) vcan0 60A#00F23110
(1710919427.075000) vcan0 60A#00F23310
(1710919427.123000) vcan0 201#4020800010F40000
(1710919427.123000) vcan0 700#041E0200
(1710919427.155000) vcan0 60A#00F23510
(1710919427.231000) vcan0 60A#00F23710
(1710919427.308000) vcan0 60A#00F23910
(1710919427.372000) vcan0 60A#00F23B10
(1710919427.451000) vcan0 60A#00F23D10
(1710919427.528000) vcan0 60A#00F23F10
(1710919427.590000) vcan0 60A#00F24110
(1710919427.667000) vcan0 60A#00F24310
(1710919427.745000) vcan0 60A#00F24510
(1710919427.822000) vcan0 60A#00F24710
(1710919427.884000) vcan0 60A#00F24910
(1710919427.962000) vcan0 60A#00F24B10
(1710919428.041000) vcan0 60A#00F24D10
(1710919428.119000) vcan0 60A#00F24F10
(1710919428.119000) vcan0 201#4020800010F40000
(1710919428.119000) vcan0 700#041E0200
(1710919428.197000) vcan0 60A#00F25110
(1710919428.261000) vcan0 60A#00F25310
(1710919428.338000) vcan0 60A#00F25510
(1710919428.416000) vcan0 60A#00F25710
(1710919428.494000) vcan0 60A#00F25910
(1710919428.556000) vcan0 60A#00F25B10
(1710919428.634000) vcan0 60A#00F25D10
(1710919428.713000) vcan0 60A#00F25F10
(1710919428.791000) vcan0 60A#00F26110
(1710919428.853000) vcan0 60A#00F26310
(1710919428.932000) vcan0 60A#00F26510
(1710919429.010000) vcan0 60A#00F26710
(1710919429.089000) vcan0 60A#00F26910
(1710919429.120000) vcan0 201#4020800010F40000
(1710919429.120000) vcan0 700#041E0200
(1710919429.151000) vcan0 60A#00F26B10
(1710919429.229000) vcan0 60A#00F26D10
(1710919429.307000) vcan0 60A#00F26F10
(1710919429.386000) vcan0 60A#00F27110
(1710919429.462000) vcan0 60A#00F27310
(1710919429.525000) vcan0 60A#00F27510
(1710919429.604000) vcan0 60A#00F27710
(1710919429.682000) vcan0 60A#00F27910
(1710919429.762000) vcan0 60A#00F27B10
(1710919429.826000) vcan0 60A#00F27D10
(1710919429.905000) vcan0 60A#00F27F10
(1710919429.983000) vcan0 60A#00F28110
(1710919430.047000) vcan0 60A#00F28310
(1710919430.126000) vcan0 60A#00F28510
(1710919430.126000) vcan0 201#4020800010F40000
(1710919430.126000) vcan0 700#041E0200
(1710919430.206000) vcan0 60A#00F28710
(1710919430.268000) vcan0 60A#00F28910
(1710919430.347000) vcan0 60A#00F28B10
(1710919430.425000) vcan0 60A#00F28D10
(1710919430.504000) vcan0 60A#00F28F10
(1710919430.568000) vcan0 60A#00F29110
(1710919430.646000) vcan0 60A#00F29310
(1710919430.724000) vcan0 60A#00F29510
(1710919430.802000) vcan0 60A#00F29710
(1710919430.865000) vcan0 60A#00F29910
(1710919430.942000) vcan0 60A#00F29B10
(1710919431.021000) vcan0 60A#00F29D10
(1710919431.099000) vcan0 60A#00F29F10
(1710919431.130000) vcan0 201#4020800010F40000
(1710919431.130000) vcan0 700#041E0200
(1710919431.177000) vcan0 60A#00F2A110
(1710919431.240000) vcan0 60A#00F2A310
(1710919431.320000) vcan0 60A#00F2A510
(1710919431.398000) vcan0 60A#00F2A710
(1710919431.462000) vcan0 60A#00F2A910
(1710919431.541000) vcan0 60A#00F2AB10
(1710919431.619000) vcan0 60A#00F2AD10
(1710919431.696000) vcan0 60A#00F2AF10
(1710919431.757000) vcan0 60A#00F2B110
(1710919431.833000) vcan0 60A#00F2B310
(1710919431.910000) vcan0 60A#00F2B510
(1710919431.988000) vcan0 60A#00F2B710
(1710919432.066000) vcan0 60A#00F2B910
(1710919432.129000) vcan0 201#4020800010F40000
(1710919432.129000) vcan0 700#041E0200
(1710919432.145000) vcan0 60A#00F2BB10
(1710919432.207000) vcan0 60A#00F2BD10
(1710919432.286000) vcan0 60A#00F2BF10
(1710919432.363000) vcan0 60A#00F2C110
(1710919432.441000) vcan0 60A#00F2C310
(1710919432.504000) vcan0 60A#00F2C510
(1710919432.583000) vcan0 60A#00F2C710
(1710919432.660000) vcan0 60A#00F2C910
(1710919432.737000) vcan0 60A#00F2CB10
(1710919432.814000) vcan0 60A#00F2CD10
(1710919432.875000) vcan0 60A#00F2CF10
(1710919432.952000) vcan0 60A#00F2D110
(1710919433.030000) vcan0 60A#00F2D310
(1710919433.109000) vcan0 60A#00F2D510
(1710919433.125000) vcan0 201#4020800010F40000
(1710919433.125000) vcan0 700#041E0200
(1710919433.188000) vcan0 60A#00F2D710
(1710919433.249000) vcan0 60A#00F2D910
(1710919433.329000) vcan0 60A#00F2DB10
(1710919433.407000) vcan0 60A#00F2DD10
(1710919433.469000) vcan0 60A#00F2DF10
(1710919433.548000) vcan0 60A#00F2E110
(1710919433.625000) vcan0 60A#00F2E310
(1710919433.702000) vcan0 60A#00F2E510
(1710919433.780000) vcan0 60A#00F2E710
(1710919433.857000) vcan0 60A#00F2E910
(1710919433.920000) vcan0 60A#00F2EB10
(1710919433.997000) vcan0 60A#00F2ED10
(1710919434.077000) vcan0 60A#00F2EF10
(1710919434.124000) vcan0 201#4020800010F40000
(1710919434.124000) vcan0 700#041E0200
(1710919434.140000) vcan0 60A#00F2F110
(1710919434.219000) vcan0 60A#00F2F310
(1710919434.298000) vcan0 60A#00F2F510
(1710919434.376000) vcan0 60A#00F2F710
(1710919434.440000) vcan0 60A#00F2F910
(1710919434.518000) vcan0 60A#00F2FB10
(1710919434.596000) vcan0 60A#00F2FD10
(1710919434.658000) vcan0 60A#00F2FF10
(1710919434.738000) vcan0 60A#00F30110
(1710919434.817000) vcan0 60A#00F30310
(1710919434.895000) vcan0 60A#00F30510
(1710919434.958000) vcan0 60A#00F30710
(1710919435.037000) vcan0 60A#00F30910
(1710919435.114000) vcan0 60A#00F30B10
(1710919435.130000) vcan0 201#4020800010F40000
(1710919435.130000) vcan0 700#041E0200
(1710919435.193000) vcan0 60A#00F30D10
(1710919435.255000) vcan0 60A#00F30F10
(1710919435.333000) vcan0 60A#00F31110
(1710919435.411000) vcan0 60A#00F31310
(1710919435.491000) vcan0 60A#00F31510
(1710919435.555000) vcan0 60A#00F31710
(1710919435.633000) vcan0 60A#00F31910
(1710919435.711000) vcan0 60A#00F31B10
(1710919435.774000) vcan0 60A#00F31D10
(1710919435.853000) vcan0 60A#00F31F10
(1710919435.931000) vcan0 60A#00F32110
(1710919436.008000) vcan0 60A#00F32310
(1710919436.086000) vcan0 60A#00F32510
(1710919436.133000) vcan0 201#4020800010F40000
(1710919436.133000) vcan0 700#041E0200
(1710919436.149000) vcan0 60A#00F32710
(1710919436.227000) vcan0 60A#00F32910
(1710919436.306000) vcan0 60A#00F32B10
(1710919436.383000) vcan0 60A#00F32D10
(1710919436.446000) vcan0 60A#00F32F10
(1710919436.524000) vcan0 60A#00F33110
(1710919436.602000) vcan0 60A#00F33310
(1710919436.678000) vcan0 60A#00F33510
(1710919436.755000) vcan0 60A#00F33710
(1710919436.818000) vcan0 60A#00F33910
(1710919436.894000) vcan0 60A#00F33B10
(1710919436.974000) vcan0 60A#00F33D10
(1710919437.053000) vcan0 60A#00F33F10
(1710919437.131000) vcan0 60A#00F34110
(1710919437.131000) vcan0 201#4020800010F40000
(1710919437.131000) vcan0 700#041E0200
(1710919437.193000) vcan0 60A#00F34310
(1710919437.270000) vcan0 60A#00F34510
(1710919437.347000) vcan0 60A#00F34710
(1710919437.424000) vcan0 60A#00F34910
(1710919437.501000) vcan0 60A#00F34B10
(1710919437.562000) vcan0 60A#00F34D10
(1710919437.640000) vcan0 60A#00F34F10
(1710919437.718000) vcan0 60A#00F35110
(1710919437.795000) vcan0 60A#00F35310
(1710919437.859000) vcan0 60A#00F35510
(1710919437.937000) vcan0 60A#00F35710
(1710919438.013000) vcan0 60A#00F35910
(1710919438.091000) vcan0 60A#00F35B10
(1710919438.121000) vcan0 201#4020800010F40000
(1710919438.121000) vcan0 700#041E0200
(1710919438.169000) vcan0 60A#00F35D10
(1710919438.232000) vcan0 60A#00F35F10
(1710919438.311000) vcan0 60A#00F36110
(1710919438.389000) vcan0 60A#00F36310
(1710919438.467000) vcan0 60A#00F36510
(1710919438.529000) vcan0 60A#00F36710
(1710919438.608000) vcan0 60A#00F36910
(1710919438.686000) vcan0 60A#00F36B10
(1710919438.765000) vcan0 60A#00F36D10
(1710919438.826000) vcan0 60A#00F36F10
(1710919438.906000) vcan0 60A#00F37110
(1710919438.985000) vcan0 60A#00F37310
(1710919439.065000) vcan0 60A#00F37510
(1710919439.126000) vcan0 201#4020800010F40000
(1710919439.126000) vcan0 700#041E0200
(1710919439.126000) vcan0 60A#00F37710
(1710919439.205000) vcan0 60A#00F37910
(1710919439.283000) vcan0 60A#00F37B10
(1710919439.363000) vcan0 60A#00F37D10
(1710919439.425000) vcan0 60A#00F37F10
(1710919439.503000) vcan0 60A#00F38110
(1710919439.581000) vcan0 60A#00F38310
(1710919439.643000) vcan0 60A#00F38510
(1710919439.721000) vcan0 60A#00F38710
(1710919439.798000) vcan0 60A#00F38910
(1710919439.876000) vcan0 60A#00F38B10
(1710919439.954000) vcan0 60A#00F38D10
(1710919440.033000) vcan0 60A#00F38F10
(1710919440.096000) vcan0 60A#00F39110
(1710919440.128000) vcan0 201#4020800010F40000
(1710919440.128000) vcan0 700#041E0200
(1710919440.175000) vcan0 60A#00F39310
(1710919440.252000) vcan0 60A#00F39510
(1710919440.332000) vcan0 60A#00F39710
(1710919440.396000) vcan0 60A#00F39910
(1710919440.476000) vcan0 60A#00F39B10
(1710919440.540000) vcan0 60A#00F39D10
(1710919440.617000) vcan0 60A#00F39F10
(1710919440.695000) vcan0 60A#00F3A110
(1710919440.774000) vcan0 60A#00F3A310
(1710919440.852000) vcan0 60A#00F3A510
(1710919440.915000) vcan0 60A#00F3A710
(1710919440.993000) vcan0 60A#00F3A910
(1710919441.073000) vcan0 60A#00F3AB10
(1710919441.136000) vcan0 201#4020800010F40000
(1710919441.136000) vcan0 700#041E0200
(1710919441.136000) vcan0 60A#00F3AD10
(1710919441.216000) vcan0 60A#00F3AF10
(1710919441.296000) vcan0 60A#00F3B110
(1710919441.374000) vcan0 60A#00F3B310
(1710919441.438000) vcan0 60A#00F3B510
(1710919441.515000) vcan0 60A#00F3B710
(1710919441.594000) vcan0 60A#00F3B910
(1710919441.672000) vcan0 60A#00F3BB10
(1710919441.735000) vcan0 60A#00F3BD10
(1710919441.812000) vcan0 60A#00F3BF10
(1710919441.891000) vcan0 60A#00F3C110
(1710919441.954000) vcan0 60A#00F3C310
(1710919442.031000) vcan0 60A#00F3C510
(1710919442.108000) vcan0 60A#00F3C710
(1710919442.124000) vcan0 201#4020800010F40000
(1710919442.124000) vcan0 700#041E0200
(1710919442.186000) vcan0 60A#00F3C910
(1710919442.263000) vcan0 60A#00F3CB10
(1710919442.341000) vcan0 60A#00F3CD10
(1710919442.404000) vcan0 60A#00F3CF10
(1710919442.483000) vcan0 60A#00F3D110
(1710919442.562000) vcan0 60A#00F3D310
(1710919442.624000) vcan0 60A#00F3D510
(1710919442.701000) vcan0 60A#00F3D710
(1710919442.780000) vcan0 60A#00F3D910
(1710919442.859000) vcan0 60A#00F3DB10
(1710919442.938000) vcan0 60A#00F3DD10
(1710919442.999000) vcan0 60A#00F3DF10
(1710919443.077000) vcan0 60A#00F3E110
(1710919443.124000) vcan0 201#4020800010F40000
(1710919443.124000) vcan0 700#041E0200
(1710919443.156000) vcan0 60A#00F3E310
(1710919443.234000) vcan0 60A#00F3E510
(1710919443.312000) vcan0 60A#00F3E710
(1710919443.374000) vcan0 60A#00F3E910
(1710919443.453000) vcan0 60A#00F3EB10
(1710919443.530000) vcan0 60A#00F3ED10
(1710919443.606000) vcan0 60A#00F3EF10
(1710919443.670000) vcan0 60A#00F3F110
(1710919443.749000) vcan0 60A#00F3F310
(1710919443.825000) vcan0 60A#00F3F510
(1710919443.903000) vcan0 60A#00F3F710
(1710919443.981000) vcan0 60A#00F3F910
(1710919444.043000) vcan0 60A#00F3FB10
(1710919444.123000) vcan0 60A#00F3FD10
(1710919444.123000) vcan0 201#4020800010F40000
(1710919444.123000) vcan0 700#041E0200
(1710919444.200000) vcan0 60A#00F3FF10
(1710919444.264000) vcan0 60A#00F40110
(1710919444.342000) vcan0 60A#00F40310
(1710919444.418000) vcan0 60A#00F40510
(1710919444.496000) vcan0 60A#00F40710
(1710919444.573000) vcan0 60A#00F40910
(1710919444.636000) vcan0 60A#00F40B10
(1710919444.716000) vcan0 60A#00F40D10
(1710919444.794000) vcan0 60A#00F40F10
(1710919444.857000) vcan0 60A#00F41110
(1710919444.936000) vcan0 60A#00F41310
(1710919445.014000) vcan0 60A#00F41510
(1710919445.092000) vcan0 60A#00F41710
(1710919445.140000) vcan0 201#4020800010F40000
(1710919445.140000) vcan0 700#041E0200
(1710919445.171000) vcan0 60A#00F41910
(1710919445.234000) vcan0 60A#00F41B10
(1710919445.311000) vcan0 60A#00F41D10
(1710919445.389000) vcan0 60A#00F41F10
(1710919445.450000) vcan0 60A#00F42110
(1710919445.528000) vcan0 60A#00F42310
(1710919445.608000) vcan0 60A#00F42510
(1710919445.686000) vcan0 60A#00F42710
(1710919445.764000) vcan0 60A#00F42910
(1710919445.841000) vcan0 60A#00F42B10
(1710919445.904000) vcan0 60A#00F42D10
(1710919445.983000) vcan0 60A#00F42F10
(1710919446.061000) vcan0 60A#00F43110
(1710919446.124000) vcan0 60A#00F43310
(1710919446.124000) vcan0 201#4020800010F40000
(1710919446.124000) vcan0 700#041E0200
(1710919446.203000) vcan0 60A#00F43510
(1710919446.280000) vcan0 60A#00F43710
(1710919446.358000) vcan0 60A#00F43910
(1710919446.437000) vcan0 60A#00F43B10
(1710919446.498000) vcan0 60A#00F43D10
(1710919446.576000) vcan0 60A#00F43F10
(1710919446.654000) vcan0 60A#00F44110
(1710919446.731000) vcan0 60A#00F44310
(1710919446.794000) vcan0 60A#00F44510
(1710919446.871000) vcan0 60A#00F44710
(1710919446.950000) vcan0 60A#00F44910
(1710919447.029000) vcan0 60A#00F44B10
(1710919447.091000) vcan0 60A#00F44D10
(1710919447.123000) vcan0 201#4020800010F40000
(1710919447.123000) vcan0 700#041E0200
(1710919447.170000) vcan0 60A#00F44F10
(1710919447.250000) vcan0 60A#00F45110
(1710919447.327000) vcan0 60A#00F45310
(1710919447.389000) vcan0 60A#00F45510
(1710919447.467000) vcan0 60A#00F45710
(1710919447.546000) vcan0 60A#00F45910
(1710919447.625000) vcan0 60A#00F45B10
(1710919447.700000) vcan0 60A#00F45D10
(1710919447.764000) vcan0 60A#00F45F10
(1710919447.842000) vcan0 60A#00F46110
(1710919447.920000) vcan0 60A#00F46310
(1710919447.982000) vcan0 60A#00F46510
(1710919448.061000) vcan0 60A#00F46710
(1710919448.138000) vcan0 201#4020800010F40000
(1710919448.138000) vcan0 700#041E0200
(1710919448.138000) vcan0 60A#00F46910
(1710919448.216000) vcan0 60A#00F46B10
(1710919448.293000) vcan0 60A#00F46D10
(1710919448.355000) vcan0 60A#00F46F10
(1710919448.433000) vcan0 60A#00F47110
(1710919448.512000) vcan0 60A#00F47310
(1710919448.590000) vcan0 60A#00F47510
(1710919448.653000) vcan0 60A#00F47710
(1710919448.732000) vcan0 60A#00F47910
(1710919448.810000) vcan0 60A#00F47B10
(1710919448.889000) vcan0 60A#00F47D10
(1710919448.952000) vcan0 60A#00F47F10
(1710919449.031000) vcan0 60A#00F48110
(1710919449.108000) vcan0 60A#00F48310
(1710919449.139000) vcan0 201#4020800010F40000
(1710919449.139000) vcan0 700#041E0200
(1710919449.185000) vcan0 60A#00F48510
(1710919449.247000) vcan0 60A#00F48710
(1710919449.326000) vcan0 60A#00F48910
(1710919449.403000) vcan0 60A#00F48B10
(1710919449.480000) vcan0 60A#00F48D10
(1710919449.559000) vcan0 60A#00F48F10
(1710919449.636000) vcan0 60A#00F49110
(1710919449.699000) vcan0 60A#00F49310
(1710919449.777000) vcan0 60A#00F49510
(1710919449.855000) vcan0 60A#00F49710
(1710919449.933000) vcan0 60A#00F49910
(1710919449.995000) vcan0 60A#00F49B10
(1710919450.075000) vcan0 60A#00F49D10
(1710919450.138000) vcan0 201#4020800010F40000
(1710919450.138000) vcan0 700#041E0200
(1710919450.154000) vcan0 60A#00F49F10
(1710919450.216000) vcan0 60A#00F4A110
(1710919450.296000) vcan0 60A#00F4A310
(1710919450.374000) vcan0 60A#00F4A510
(1710919450.437000) vcan0 60A#00F4A710
(1710919450.531000) vcan0 60A#00F4A910
(1710919450.591000) vcan0 60A#00F4AB10
(1710919450.667000) vcan0 60A#00F4AD10
(1710919450.747000) vcan0 60A#00F4AF10
(1710919450.826000) vcan0 60A#00F4B110
(1710919450.887000) vcan0 60A#00F4B310
(1710919450.966000) vcan0 60A#00F4B510
(1710919451.043000) vcan0 60A#00F4B710
(1710919451.107000) vcan0 60A#00F4B910
(1710919451.137000) vcan0 201#4020800010F40000
(1710919451.137000) vcan0 700#041E0200
(1710919451.184000) vcan0 60A#00F4BB10
(1710919451.261000) vcan0 60A#00F4BD10
(1710919451.339000) vcan0 60A#00F4BF10
(1710919451.416000) vcan0 60A#00F4C110
(1710919451.495000) vcan0 60A#00F4C310
(1710919451.558000) vcan0 60A#00F4C510
(1710919451.636000) vcan0 60A#00F4C710
(1710919451.714000) vcan0 60A#00F4C910
(1710919451.792000) vcan0 60A#00F4CB10
(1710919451.855000) vcan0 60A#00F4CD10
(1710919451.932000) vcan0 60A#00F4CF10
(1710919452.010000) vcan0 60A#00F4D110
(1710919452.074000) vcan0 60A#00F4D310
(1710919452.138000) vcan0 201#4020800010F40000
(1710919452.138000) vcan0 700#041E0200
(1710919452.153000) vcan0 60A#00F4D510
(1710919452.231000) vcan0 60A#00F4D710
(1710919452.308000) vcan0 60A#00F4D910
(1710919452.385000) vcan0 60A#00F4DB10
(1710919452.463000) vcan0 60A#00F4DD10
(1710919452.525000) vcan0 60A#00F4DF10
(1710919452.602000) vcan0 60A#00F4E110
(1710919452.679000) vcan0 60A#00F4E310
(1710919452.756000) vcan0 60A#00F4E510
(1710919452.818000) vcan0 60A#00F4E710
(1710919452.897000) vcan0 60A#00F4E910
(1710919452.975000) vcan0 60A#00F4EB10
(1710919453.052000) vcan0 60A#00F4ED10
(1710919453.116000) vcan0 60A#00F4EF10
(1710919453.131000) vcan0 201#4020800010F40000
(1710919453.131000) vcan0 700#041E0200
(1710919453.193000) vcan0 60A#00F4F110
(1710919453.272000) vcan0 60A#00F4F310
(1710919453.349000) vcan0 60A#00F4F510
(1710919453.427000) vcan0 60A#00F4F710
(1710919453.505000) vcan0 60A#00F4F910
(1710919453.569000) vcan0 60A#00F4FB10
(1710919453.647000) vcan0 60A#00F4FD10
(1710919453.710000) vcan0 60A#00F4FF10
(1710919453.790000) vcan0 60A#00F50110
(1710919453.869000) vcan0 60A#00F50310
(1710919453.933000) vcan0 60A#00F50510
(1710919454.009000) vcan0 60A#00F50710
(1710919454.087000) vcan0 60A#00F50910
(1710919454.133000) vcan0 201#4020800010F40000
(1710919454.133000) vcan0 700#041E0200
(1710919454.164000) vcan0 60A#00F50B10
(1710919454.242000) vcan0 60A#00F50D10
(1710919454.305000) vcan0 60A#00F50F10
(1710919454.385000) vcan0 60A#00F51110
(1710919454.464000) vcan0 60A#00F51310
(1710919454.542000) vcan0 60A#00F51510
(1710919454.605000) vcan0 60A#00F51710
(1710919454.685000) vcan0 60A#00F51910
(1710919454.762000) vcan0 60A#00F51B10
(1710919454.841000) vcan0 60A#00F51D10
(1710919454.905000) vcan0 60A#00F51F10
(1710919454.983000) vcan0 60A#00F52110
(1710919455.061000) vcan0 60A#00F52310
(1710919455.139000) vcan0 60A#00F52510
(1710919455.139000) vcan0 201#4020800010F40000
(1710919455.139000) vcan0 700#041E0200
(1710919455.201000) vcan0 60A#00F52710
(1710919455.278000) vcan0 60A#00F52910
(1710919455.356000) vcan0 60A#00F52B10
(1710919455.435000) vcan0 60A#00F52D10
(1710919455.497000) vcan0 60A#00F52F10
(1710919455.576000) vcan0 60A#00F53110
(1710919455.653000) vcan0 60A#00F53310
(1710919455.730000) vcan0 60A#00F53510
(1710919455.793000) vcan0 60A#00F53710
(1710919455.869000) vcan0 60A#00F53910
(1710919455.949000) vcan0 60A#00F53B10
(1710919456.027000) vcan0 60A#00F53D10
(1710919456.104000) vcan0 60A#00F53F10
(1710919456.136000) vcan0 201#4020800010F40000
(1710919456.136000) vcan0 700#041E0200
(1710919456.168000) vcan0 60A#00F54110
(1710919456.246000) vcan0 60A#00F54310
(1710919456.322000) vcan0 60A#00F54510
(1710919456.400000) vcan0 60A#00F54710
(1710919456.477000) vcan0 60A#00F54910
(1710919456.541000) vcan0 60A#00F54B10
(1710919456.620000) vcan0 60A#00F54D10
(1710919456.683000) vcan0 60A#00F54F10
(1710919456.762000) vcan0 60A#00F55110
(1710919456.840000) vcan0 60A#00F55310
(1710919456.918000) vcan0 60A#00F55510
(1710919456.997000) vcan0 60A#00F55710
(1710919457.075000) vcan0 60A#00F55910
(1710919457.136000) vcan0 201#4020800010F40000
(1710919457.136000) vcan0 700#041E0200
(1710919457.136000) vcan0 60A#00F55B10
(1710919457.213000) vcan0 60A#00F55D10
(1710919457.290000) vcan0 60A#00F55F10
(1710919457.367000) vcan0 60A#00F56110
(1710919457.444000) vcan0 60A#00F56310
(1710919457.522000) vcan0 60A#00F56510
(1710919457.586000) vcan0 60A#00F56710
(1710919457.664000) vcan0 60A#00F56910
(1710919457.741000) vcan0 60A#00F56B10
(1710919457.819000) vcan0 60A#00F56D10
(1710919457.881000) vcan0 60A#00F56F10
(1710919457.959000) vcan0 60A#00F57110
(1710919458.039000) vcan0 60A#00F57310
(1710919458.103000) vcan0 60A#00F57510
(1710919458.134000) vcan0 201#4020800010F40000
(1710919458.134000) vcan0 700#041E0200
(1710919458.181000) vcan0 60A#00F57710
(1710919458.260000) vcan0 60A#00F57910
(1710919458.339000) vcan0 60A#00F57B10
(1710919458.402000) vcan0 60A#00F57D10
(1710919458.480000) vcan0 60A#00F57F10
(1710919458.558000) vcan0 60A#00F58110
(1710919458.621000) vcan0 60A#00F58310
(1710919458.699000) vcan0 60A#00F58510
(1710919458.776000) vcan0 60A#00F58710
(1710919458.856000) vcan0 60A#00F58910
(1710919458.917000) vcan0 60A#00F58B10
(1710919458.994000) vcan0 60A#00F58D10
(1710919459.074000) vcan0 60A#00F58F10
(1710919459.137000) vcan0 201#4020800010F40000
(1710919459.137000) vcan0 700#041E0200
(1710919459.153000) vcan0 60A#00F59110
(1710919459.216000) vcan0 60A#00F59310
(1710919459.294000) vcan0 60A#00F59510
(1710919459.372000) vcan0 60A#00F59710
(1710919459.449000) vcan0 60A#00F59910
(1710919459.528000) vcan0 60A#00F59B10
(1710919459.590000) vcan0 60A#00F59D10
(1710919459.667000) vcan0 60A#00F59F10
(1710919459.745000) vcan0 60A#00F5A110
(1710919459.824000) vcan0 60A#00F5A310
(1710919459.888000) vcan0 60A#00F5A510
(1710919459.965000) vcan0 60A#00F5A710
(1710919460.043000) vcan0 60A#00F5A910
(1710919460.121000) vcan0 60A#00F5AB10
(1710919460.137000) vcan0 201#4020800010F40000
(1710919460.137000) vcan0 700#041E0200
(1710919460.199000) vcan0 60A#00F5AD10
(1710919460.263000) vcan0 60A#00F5AF10
(1710919460.339000) vcan0 60A#00F5B110
(1710919460.417000) vcan0 60A#00F5B310
(1710919460.495000) vcan0 60A#00F5B510
(1710919460.558000) vcan0 60A#00F5B710
(1710919460.636000) vcan0 60A#00F5B910
(1710919460.714000) vcan0 60A#00F5BB10
(1710919460.794000) vcan0 60A#00F5BD10
(1710919460.855000) vcan0 60A#00F5BF10
(1710919460.934000) vcan0 60A#00F5C110
(1710919461.012000) vcan0 60A#00F5C310
(1710919461.089000) vcan0 60A#00F5C510
(1710919461.136000) vcan0 201#4020800010F40000
(1710919461.136000) vcan0 700#041E0200
(1710919461.167000) vcan0 60A#00F5C710
(1710919461.230000) vcan0 60A#00F5C910
(1710919461.308000) vcan0 60A#00F5CB10
(1710919461.385000) vcan0 60A#00F5CD10
(1710919461.462000) vcan0 60A#00F5CF10
(1710919461.525000) vcan0 60A#00F5D110
(1710919461.604000) vcan0 60A#00F5D310
(1710919461.681000) vcan0 60A#00F5D510
(1710919461.757000) vcan0 60A#00F5D710
(1710919461.836000) vcan0 60A#00F5D910
(1710919461.898000) vcan0 60A#00F5DB10
(1710919461.975000) vcan0 60A#00F5DD10
(1710919462.053000) vcan0 60A#00F5DF10
(1710919462.130000) vcan0 60A#00F5E110
(1710919462.130000) vcan0 201#4020800010F40000
(1710919462.130000) vcan0 700#041E0200
(1710919462.193000) vcan0 60A#00F5E310
(1710919462.270000) vcan0 60A#00F5E510
(1710919462.348000) vcan0 60A#00F5E710
(1710919462.426000) vcan0 60A#00F5E910
(1710919462.502000) vcan0 60A#00F5EB10
(1710919462.581000) vcan0 60A#00F5ED10
(1710919462.643000) vcan0 60A#00F5EF10
(1710919462.720000) vcan0 60A#00F5F110
(1710919462.796000) vcan0 60A#00F5F310
(1710919462.874000) vcan0 60A#00F5F510
(1710919462.936000) vcan0 60A#00F5F710
(1710919463.015000) vcan0 60A#00F5F910
(1710919463.094000) vcan0 60A#00F5FB10
(1710919463.141000) vcan0 201#4020800010F40000
(1710919463.141000) vcan0 700#041E0200
(1710919463.172000) vcan0 60A#00F5FD10
(1710919463.250000) vcan0 60A#00F5FF10
(1710919463.312000) vcan0 60A#00F60110
(1710919463.390000) vcan0 60A#00F60310
(1710919463.468000) vcan0 60A#00F60510
(1710919463.544000) vcan0 60A#00F60710
(1710919463.622000) vcan0 60A#00F60910
(1710919463.683000) vcan0 60A#00F60B10
(1710919463.760000) vcan0 60A#00F60D10
(1710919463.838000) vcan0 60A#00F60F10
(1710919463.915000) vcan0 60A#00F61110
(1710919463.994000) vcan0 60A#00F61310
(1710919464.072000) vcan0 60A#00F61510
(1710919464.135000) vcan0 60A#00F61710
(1710919464.135000) vcan0 201#4020800010F40000
(1710919464.135000) vcan0 700#041E0200
(1710919464.214000) vcan0 60A#00F61910
(1710919464.291000) vcan0 60A#00F61B10
(1710919464.354000) vcan0 60A#00F61D10
(1710919464.431000) vcan0 60A#00F61F10
(1710919464.508000) vcan0 60A#00F62110
(1710919464.588000) vcan0 60A#00F62310
(1710919464.649000) vcan0 60A#00F62510
(1710919464.728000) vcan0 60A#00F62710
(1710919464.807000) vcan0 60A#00F62910
(1710919464.885000) vcan0 60A#00F62B10
(1710919464.963000) vcan0 60A#00F62D10
(1710919465.026000) vcan0 60A#00F62F10
(1710919465.105000) vcan0 60A#00F63110
(1710919465.136000) vcan0 201#4020800010F40000
(1710919465.136000) vcan0 700#041E0200
(1710919465.182000) vcan0 60A#00F63310
(1710919465.260000) vcan0 60A#00F63510
(1710919465.321000) vcan0 60A#00F63710
(1710919465.400000) vcan0 60A#00F63910
(1710919465.477000) vcan0 60A#00F63B10
(1710919465.556000) vcan0 60A#00F63D10
(1710919465.618000) vcan0 60A#00F63F10
(1710919465.696000) vcan0 60A#00F64110
(1710919465.773000) vcan0 60A#00F64310
(1710919465.851000) vcan0 60A#00F64510
(1710919465.914000) vcan0 60A#00F64710
(1710919465.992000) vcan0 60A#00F64910
(1710919466.067000) vcan0 60A#00F64B10
(1710919466.130000) vcan0 201#4020800010F40000
(1710919466.130000) vcan0 700#041E0200
(1710919466.146000) vcan0 60A#00F64D10
(1710919466.224000) vcan0 60A#00F64F10
(1710919466.303000) vcan0 60A#00F65110
(1710919466.366000) vcan0 60A#00F65310
(1710919466.443000) vcan0 60A#00F65510
(1710919466.519000) vcan0 60A#00F65710
(1710919466.598000) vcan0 60A#00F65910
(1710919466.661000) vcan0 60A#00F65B10
(1710919466.738000) vcan0 60A#00F65D10
(1710919466.817000) vcan0 60A#00F65F10
(1710919466.897000) vcan0 60A#00F66110
(1710919466.959000) vcan0 60A#00F66310
(1710919467.037000) vcan0 60A#00F66510
(1710919467.117000) vcan0 60A#00F66710
(1710919467.132000) vcan0 201#4020800010F40000
(1710919467.132000) vcan0 700#041E0200
(1710919467.195000) vcan0 60A#00F66910
(1710919467.257000) vcan0 60A#00F66B10
(1710919467.335000) vcan0 60A#00F66D10
(1710919467.412000) vcan0 60A#00F66F10
(1710919467.490000) vcan0 60A#00F67110
(1710919467.553000) vcan0 60A#00F67310
(1710919467.646000) vcan0 60A#00F67510
(1710919467.710000) vcan0 60A#00F67710
(1710919467.773000) vcan0 60A#00F67910
(1710919467.851000) vcan0 60A#00F67B10
(1710919467.929000) vcan0 60A#00F67D10
(1710919468.007000) vcan0 60A#00F67F10
(1710919468.086000) vcan0 60A#00F68110
(1710919468.134000) vcan0 201#4020800010F40000
(1710919468.134000) vcan0 700#041E0200
(1710919468.150000) vcan0 60A#00F68310
(1710919468.230000) vcan0 60A#00F68510
(1710919468.308000) vcan0 60A#00F68710
(1710919468.388000) vcan0 60A#00F68910
(1710919468.450000) vcan0 60A#00F68B10
(1710919468.528000) vcan0 60A#00F68D10
(1710919468.606000) vcan0 60A#00F68F10
(1710919468.668000) vcan0 60A#00F69110
(1710919468.743000) vcan0 60A#00F69310
(1710919468.822000) vcan0 60A#00F69510
(1710919468.899000) vcan0 60A#00F69710
(1710919468.977000) vcan0 60A#00F69910
(1710919469.039000) vcan0 60A#00F69B10
(1710919469.119000) vcan0 60A#00F69D10
(1710919469.135000) vcan0 201#4020800010F40000
(1710919469.135000) vcan0 700#041E0200
(1710919469.198000) vcan0 60A#00F69F10
(1710919469.276000) vcan0 60A#00F6A110
(1710919469.354000) vcan0 60A#00F6A310
(1710919469.417000) vcan0 60A#00F6A510
(1710919469.495000) vcan0 60A#00F6A710
(1710919469.573000) vcan0 60A#00F6A910
(1710919469.635000) vcan0 60A#00F6AB10
(1710919469.715000) vcan0 60A#00F6AD10
(1710919469.792000) vcan0 60A#00F6AF10
(1710919469.871000) vcan0 60A#00F6B110
(1710919469.949000) vcan0 60A#00F6B310
(1710919470.013000) vcan0 60A#00F6B510
(1710919470.090000) vcan0 60A#00F6B710
(1710919470.137000) vcan0 201#4020800010F40000
(1710919470.137000) vcan0 700#041E0200
(1710919470.168000) vcan0 60A#00F6B910
(1710919470.246000) vcan0 60A#00F6BB10
(1710919470.308000) vcan0 60A#00F6BD10
(1710919470.386000) vcan0 60A#00F6BF10
(1710919470.463000) vcan0 60A#00F6C110
(1710919470.542000) vcan0 60A#00F6C310
(1710919470.604000) vcan0 60A#00F6C510
(1710919470.684000) vcan0 60A#00F6C710
(1710919470.761000) vcan0 60A#00F6C910
(1710919470.838000) vcan0 60A#00F6CB10
(1710919470.900000) vcan0 60A#00F6CD10
(1710919470.977000) vcan0 60A#00F6CF10
(1710919471.056000) vcan0 60A#00F6D110
(1710919471.134000) vcan0 60A#00F6D310
(1710919471.134000) vcan0 201#4020800010F40000
(1710919471.134000) vcan0 700#041E0200
(1710919471.196000) vcan0 60A#00F6D510
(1710919471.275000) vcan0 60A#00F6D710
(1710919471.355000) vcan0 60A#00F6D910
(1710919471.432000) vcan0 60A#00F6DB10
(1710919471.495000) vcan0 60A#00F6DD10
(1710919471.573000) vcan0 60A#00F6DF10
(1710919471.652000) vcan0 60A#00F6E110
(1710919471.729000) vcan0 60A#00F6E310
(1710919471.806000) vcan0 60A#00F6E510
(1710919471.884000) vcan0 60A#00F6E710
(1710919471.946000) vcan0 60A#00F6E910
(1710919472.022000) vcan0 60A#00F6EB10
(1710919472.101000) vcan0 60A#00F6ED10
(1710919472.132000) vcan0 201#4020800010F40000
(1710919472.132000) vcan0 700#041E0200
(1710919472.180000) vcan0 60A#00F6EF10
(1710919472.244000) vcan0 60A#00F6F110
(1710919472.321000) vcan0 60A#00F6F310
(1710919472.398000) vcan0 60A#00F6F510
(1710919472.476000) vcan0 60A#00F6F710
(1710919472.555000) vcan0 60A#00F6F910
(1710919472.618000) vcan0 60A#00F6FB10
(1710919472.698000) vcan0 60A#00F6FD10
(1710919472.761000) vcan0 60A#00F6FF10
(1710919472.838000) vcan0 60A#00F70110
(1710919472.916000) vcan0 60A#00F70310
(1710919472.994000) vcan0 60A#00F70510
(1710919473.072000) vcan0 60A#00F70710
(1710919473.135000) vcan0 60A#00F70910
(1710919473.135000) vcan0 201#4020800010F40000
(1710919473.135000) vcan0 700#041E0200
(1710919473.214000) vcan0 60A#00F70B10
(1710919473.291000) vcan0 60A#00F70D10
(1710919473.371000) vcan0 60A#00F70F10
(1710919473.433000) vcan0 60A#00F71110
(1710919473.512000) vcan0 60A#00F71310
(1710919473.591000) vcan0 60A#00F71510
(1710919473.670000) vcan0 60A#00F71710
(1710919473.731000) vcan0 60A#00F71910
(1710919473.811000) vcan0 60A#00F71B10
(1710919473.875000) vcan0 60A#00F71D10
(1710919473.970000) vcan0 60A#00F71F10
(1710919474.034000) vcan0 60A#00F72110
(1710919474.111000) vcan0 60A#00F72310
(1710919474.143000) vcan0 201#4020800010F40000
(1710919474.143000) vcan0 700#041E0200
(1710919474.190000) vcan0 60A#00F72510
(1710919474.252000) vcan0 60A#00F72710
(1710919474.331000) vcan0 60A#00F72910
(1710919474.410000) vcan0 60A#00F72B10
(1710919474.488000) vcan0 60A#00F72D10
(1710919474.552000) vcan0 60A#00F72F10
(1710919474.630000) vcan0 60A#00F73110
(1710919474.710000) vcan0 60A#00F73310
(1710919474.788000) vcan0 60A#00F73510
(1710919474.850000) vcan0 60A#00F73710
(1710919474.929000) vcan0 60A#00F73910
(1710919475.007000) vcan0 60A#00F73B10
(1710919475.071000) vcan0 60A#00F73D10
(1710919475.133000) vcan0 201#4020800010F40000
(1710919475.133000) vcan0 700#041E0200
(1710919475.149000) vcan0 60A#00F73F10
(1710919475.228000) vcan0 60A#00F74110
(1710919475.306000) vcan0 60A#00F74310
(1710919475.368000) vcan0 60A#00F74510
(1710919475.447000) vcan0 60A#00F74710
(1710919475.526000) vcan0 60A#00F74910
(1710919475.605000) vcan0 60A#00F74B10
(1710919475.667000) vcan0 60A#00F74D10
(1710919475.746000) vcan0 60A#00F74F10
(1710919475.824000) vcan0 60A#00F75110
(1710919475.902000) vcan0 60A#00F75310
(1710919475.979000) vcan0 60A#00F75510
(1710919476.059000) vcan0 60A#00F75710
(1710919476.122000) vcan0 60A#00F75910
(1710919476.137000) vcan0 201#4020800010F40000
(1710919476.137000) vcan0 700#041E0200
(1710919476.201000) vcan0 60A#00F75B10
(1710919476.265000) vcan0 60A#00F75D10
(1710919476.344000) vcan0 60A#00F75F10
(1710919476.424000) vcan0 60A#00F76110
(1710919476.488000) vcan0 60A#00F76310
(1710919476.566000) vcan0 60A#00F76510
(1710919476.646000) vcan0 60A#00F76710
(1710919476.723000) vcan0 60A#00F76910
(1710919476.785000) vcan0 60A#00F76B10
(1710919476.863000) vcan0 60A#00F76D10
(1710919476.941000) vcan0 60A#00F76F10
(1710919477.018000) vcan0 60A#00F77110
(1710919477.096000) vcan0 60A#00F77310
(1710919477.143000) vcan0 201#4020800010F40000
(1710919477.143000) vcan0 700#041E0200
(1710919477.159000) vcan0 60A#00F77510
(1710919477.237000) vcan0 60A#00F77710
(1710919477.314000) vcan0 60A#00F77910
(1710919477.393000) vcan0 60A#00F77B10
(1710919477.455000) vcan0 60A#00F77D10
(1710919477.534000) vcan0 60A#00F77F10
(1710919477.612000) vcan0 60A#00F78110
(1710919477.691000) vcan0 60A#00F78310
(1710919477.768000) vcan0 60A#00F78510
(1710919477.832000) vcan0 60A#00F78710
(1710919477.910000) vcan0 60A#00F78910
(1710919477.989000) vcan0 60A#00F78B10
(1710919478.049000) vcan0 60A#00F78D10
(1710919478.127000) vcan0 60A#00F78F10
(1710919478.142000) vcan0 201#4020800010F40000
(1710919478.142000) vcan0 700#041E0200
(1710919478.205000) vcan0 60A#00F79110
(1710919478.284000) vcan0 60A#00F79310
(1710919478.345000) vcan0 60A#00F79510
(1710919478.425000) vcan0 60A#00F79710
(1710919478.502000) vcan0 60A#00F79910
(1710919478.578000) vcan0 60A#00F79B10
(1710919478.656000) vcan0 60A#00F79D10
(1710919478.719000) vcan0 60A#00F79F10
(1710919478.796000) vcan0 60A#00F7A110
(1710919478.874000) vcan0 60A#00F7A310
(1710919478.953000) vcan0 60A#00F7A510
(1710919479.016000) vcan0 60A#00F7A710
(1710919479.093000) vcan0 60A#00F7A910
(1710919479.140000) vcan0 201#4020800010F40000
(1710919479.140000) vcan0 700#041E0200
(1710919479.172000) vcan0 60A#00F7AB10
(1710919479.251000) vcan0 60A#00F7AD10
(1710919479.329000) vcan0 60A#00F7AF10
(1710919479.393000) vcan0 60A#00F7B110
(1710919479.472000) vcan0 60A#00F7B310
(1710919479.550000) vcan0 60A#00F7B510
(1710919479.613000) vcan0 60A#00F7B710
(1710919479.692000) vcan0 60A#00F7B910
(1710919479.769000) vcan0 60A#00F7BB10
(1710919479.847000) vcan0 60A#00F7BD10
(1710919479.908000) vcan0 60A#00F7BF10
(1710919479.986000) vcan0 60A#00F7C110
(1710919480.064000) vcan0 60A#00F7C310
(1710919480.143000) vcan0 60A#00F7C510
(1710919480.143000) vcan0 201#4020800010F40000
(1710919480.143000) vcan0 700#041E0200
(1710919480.205000) vcan0 60A#00F7C710
(1710919480.284000) vcan0 60A#00F7C910
(1710919480.362000) vcan0 60A#00F7CB10
(1710919480.440000) vcan0 60A#00F7CD10
(1710919480.517000) vcan0 60A#00F7CF10
(1710919480.580000) vcan0 60A#00F7D110
(1710919480.657000) vcan0 60A#00F7D310
(1710919480.735000) vcan0 60A#00F7D510
(1710919480.813000) vcan0 60A#00F7D710
(1710919480.876000) vcan0 60A#00F7D910
(1710919480.956000) vcan0 60A#00F7DB10
(1710919481.035000) vcan0 60A#00F7DD10
(1710919481.112000) vcan0 60A#00F7DF10
(1710919481.143000) vcan0 201#4020800010F40000
(1710919481.143000) vcan0 700#041E0200
(1710919481.188000) vcan0 60A#00F7E110
(1710919481.252000) vcan0 60A#00F7E310
(1710919481.329000) vcan0 60A#00F7E510
(1710919481.406000) vcan0 60A#00F7E710
(1710919481.484000) vcan0 60A#00F7E910
(1710919481.546000) vcan0 60A#00F7EB10
(1710919481.625000) vcan0 60A#00F7ED10
(1710919481.704000) vcan0 60A#00F7EF10
(1710919481.767000) vcan0 60A#00F7F110
(1710919481.844000) vcan0 60A#00F7F310
(1710919481.921000) vcan0 60A#00F7F510
(1710919481.998000) vcan0 60A#00F7F710
(1710919482.077000) vcan0 60A#00F7F910
(1710919482.139000) vcan0 201#4020800010F40000
(1710919482.139000) vcan0 700#041E0200
(1710919482.139000) vcan0 60A#00F7FB10
(1710919482.218000) vcan0 60A#00F7FD10
(1710919482.297000) vcan0 60A#00F7FF10
(1710919482.376000) vcan0 60A#00F80110
(1710919482.440000) vcan0 60A#00F80310
(1710919482.518000) vcan0 60A#00F80510
(1710919482.594000) vcan0 60A#00F80710
(1710919482.673000) vcan0 60A#00F80910
(1710919482.736000) vcan0 60A#00F80B10
(1710919482.813000) vcan0 60A#00F80D10
(1710919482.890000) vcan0 60A#00F80F10
(1710919482.967000) vcan0 60A#00F81110
(1710919483.046000) vcan0 60A#00F81310
(1710919483.108000) vcan0 60A#00F81510
(1710919483.140000) vcan0 201#4020800010F40000
(1710919483.140000) vcan0 700#041E0200
(1710919483.187000) vcan0 60A#00F81710
(1710919483.265000) vcan0 60A#00F81910
(1710919483.343000) vcan0 60A#00F81B10
(1710919483.407000) vcan0 60A#00F81D10
(1710919483.485000) vcan0 60A#00F81F10
(1710919483.563000) vcan0 60A#00F82110
(1710919483.641000) vcan0 60A#00F82310
(1710919483.702000) vcan0 60A#00F82510
(1710919483.779000) vcan0 60A#00F82710
(1710919483.858000) vcan0 60A#00F82910
(1710919483.937000) vcan0 60A#00F82B10
(1710919484.015000) vcan0 60A#00F82D10
(1710919484.077000) vcan0 60A#00F82F10
(1710919484.139000) vcan0 201#4020800010F40000
(1710919484.139000) vcan0 700#041E0200
(1710919484.155000) vcan0 60A#00F83110
(1710919484.232000) vcan0 60A#00F83310
(1710919484.296000) vcan0 60A#00F83510
(1710919484.374000) vcan0 60A#00F83710
(1710919484.452000) vcan0 60A#00F83910
(1710919484.529000) vcan0 60A#00F83B10
(1710919484.608000) vcan0 60A#00F83D10
(1710919484.670000) vcan0 60A#00F83F10
(1710919484.748000) vcan0 60A#00F84110
(1710919484.828000) vcan0 60A#00F84310
(1710919484.890000) vcan0 60A#00F84510
(1710919484.968000) vcan0 60A#00F84710
(1710919485.046000) vcan0 60A#00F84910
(1710919485.124000) vcan0 60A#00F84B10
(1710919485.139000) vcan0 201#4020800010F40000
(1710919485.139000) vcan0 700#041E0200
(1710919485.201000) vcan0 60A#00F84D10
(1710919485.263000) vcan0 60A#00F84F10
(1710919485.341000) vcan0 60A#00F85110
(1710919485.419000) vcan0 60A#00F85310
(1710919485.498000) vcan0 60A#00F85510
(1710919485.575000) vcan0 60A#00F85710
(1710919485.653000) vcan0 60A#00F85910
(1710919485.715000) vcan0 60A#00F85B10
(1710919485.795000) vcan0 60A#00F85D10
(1710919485.858000) vcan0 60A#00F85F10
(1710919485.936000) vcan0 60A#00F86110
(1710919486.015000) vcan0 60A#00F86310
(1710919486.091000) vcan0 60A#00F86510
(1710919486.137000) vcan0 201#4020800010F40000
(1710919486.137000) vcan0 700#041E0200
(1710919486.168000) vcan0 60A#00F86710
(1710919486.246000) vcan0 60A#00F86910
(1710919486.308000) vcan0 60A#00F86B10
(1710919486.387000) vcan0 60A#00F86D10
(1710919486.450000) vcan0 60A#00F86F10
(1710919486.528000) vcan0 60A#00F87110
(1710919486.606000) vcan0 60A#00F87310
(1710919486.684000) vcan0 60A#00F87510
(1710919486.761000) vcan0 60A#00F87710
(1710919486.838000) vcan0 60A#00F87910
(1710919486.915000) vcan0 60A#00F87B10
(1710919486.978000) vcan0 60A#00F87D10
(1710919487.058000) vcan0 60A#00F87F10
(1710919487.136000) vcan0 60A#00F88110
(1710919487.136000) vcan0 201#4020800010F40000
(1710919487.136000) vcan0 700#041E0200
(1710919487.200000) vcan0 60A#00F88310
(1710919487.277000) vcan0 60A#00F88510
(1710919487.354000) vcan0 60A#00F88710
(1710919487.434000) vcan0 60A#00F88910
(1710919487.511000) vcan0 60A#00F88B10
(1710919487.575000) vcan0 60A#00F88D10
(1710919487.651000) vcan0 60A#00F88F10
(1710919487.729000) vcan0 60A#00F89110
(1710919487.792000) vcan0 60A#00F89310
(1710919487.869000) vcan0 60A#00F89510
(1710919487.948000) vcan0 60A#00F89710
(1710919488.027000) vcan0 60A#00F89910
(1710919488.090000) vcan0 60A#00F89B10
(1710919488.137000) vcan0 201#4020800010F40000
(1710919488.137000) vcan0 700#041E0200
(1710919488.169000) vcan0 60A#00F89D10
(1710919488.248000) vcan0 60A#00F89F10
(1710919488.325000) vcan0 60A#00F8A110
(1710919488.388000) vcan0 60A#00F8A310
(1710919488.467000) vcan0 60A#00F8A510
(1710919488.531000) vcan0 60A#00F8A710
(1710919488.609000) vcan0 60A#00F8A910
(1710919488.687000) vcan0 60A#00F8AB10
(1710919488.765000) vcan0 60A#00F8AD10
(1710919488.842000) vcan0 60A#00F8AF10
(1710919488.906000) vcan0 60A#00F8B110
(1710919488.984000) vcan0 60A#00F8B310
(1710919489.062000) vcan0 60A#00F8B510
(1710919489.141000) vcan0 60A#00F8B710
(1710919489.141000) vcan0 201#4020800010F40000
(1710919489.141000) vcan0 700#041E0200
(1710919489.203000) vcan0 60A#00F8B910
(1710919489.281000) vcan0 60A#00F8BB10
(1710919489.358000) vcan0 60A#00F8BD10
(1710919489.436000) vcan0 60A#00F8BF10
(1710919489.515000) vcan0 60A#00F8C110
(1710919489.578000) vcan0 60A#00F8C310
(1710919489.657000) vcan0 60A#00F8C510
(1710919489.734000) vcan0 60A#00F8C710
(1710919489.796000) vcan0 60A#00F8C910
(1710919489.873000) vcan0 60A#00F8CB10
(1710919489.951000) vcan0 60A#00F8CD10
(1710919490.028000) vcan0 60A#00F8CF10
(1710919490.106000) vcan0 60A#00F8D110
(1710919490.152000) vcan0 201#4020800010F40000
(1710919490.152000) vcan0 700#041E0200
(1710919490.168000) vcan0 60A#00F8D310
(1710919490.245000) vcan0 60A#00F8D510
(1710919490.323000) vcan0 60A#00F8D710
(1710919490.402000) vcan0 60A#00F8D910
(1710919490.480000) vcan0 60A#00F8DB10
(1710919490.543000) vcan0 60A#00F8DD10
(1710919490.622000) vcan0 60A#00F8DF10
(1710919490.699000) vcan0 60A#00F8E110
(1710919490.761000) vcan0 60A#00F8E310
(1710919490.839000) vcan0 60A#00F8E510
(1710919490.919000) vcan0 60A#00F8E710
(1710919490.997000) vcan0 60A#00F8E910
(1710919491.075000) vcan0 60A#00F8EB10
(1710919491.139000) vcan0 60A#00F8ED10
(1710919491.139000) vcan0 201#4020800010F40000
(1710919491.139000) vcan0 700#041E0200
(1710919491.219000) vcan0 60A#00F8EF10
(1710919491.297000) vcan0 60A#00F8F110
(1710919491.361000) vcan0 60A#00F8F310
(1710919491.437000) vcan0 60A#00F8F510
(1710919491.516000) vcan0 60A#00F8F710
(1710919491.595000) vcan0 60A#00F8F910
(1710919491.658000) vcan0 60A#00F8FB10
(1710919491.734000) vcan0 60A#00F8FD10
(1710919491.812000) vcan0 60A#00F8FF10
(1710919491.890000) vcan0 60A#00F90110
(1710919491.968000) vcan0 60A#00F90310
(1710919492.031000) vcan0 60A#00F90510
(1710919492.110000) vcan0 60A#00F90710
(1710919492.142000) vcan0 201#4020800010F40000
(1710919492.142000) vcan0 700#041E0200
(1710919492.189000) vcan0 60A#00F90910
(1710919492.252000) vcan0 60A#00F90B10
(1710919492.329000) vcan0 60A#00F90D10
(1710919492.407000) vcan0 60A#00F90F10
(1710919492.483000) vcan0 60A#00F91110
(1710919492.560000) vcan0 60A#00F91310
(1710919492.637000) vcan0 60A#00F91510
(1710919492.699000) vcan0 60A#00F91710
(1710919492.776000) vcan0 60A#00F91910
(1710919492.854000) vcan0 60A#00F91B10
(1710919492.931000) vcan0 60A#00F91D10
(1710919493.009000) vcan0 60A#00F91F10
(1710919493.070000) vcan0 60A#00F92110
(1710919493.149000) vcan0 201#4020800010F40000
(1710919493.149000) vcan0 700#041E0200
(1710919493.149000) vcan0 60A#00F92310
(1710919493.227000) vcan0 60A#00F92510
(1710919493.304000) vcan0 60A#00F92710
(1710919493.368000) vcan0 60A#00F92910
(1710919493.445000) vcan0 60A#00F92B10
(1710919493.525000) vcan0 60A#00F92D10
(1710919493.588000) vcan0 60A#00F92F10
(1710919493.666000) vcan0 60A#00F93110
(1710919493.745000) vcan0 60A#00F93310
(1710919493.822000) vcan0 60A#00F93510
(1710919493.899000) vcan0 60A#00F93710
(1710919493.960000) vcan0 60A#00F93910
(1710919494.036000) vcan0 60A#00F93B10
(1710919494.113000) vcan0 60A#00F93D10
(1710919494.145000) vcan0 201#4020800010F40000
(1710919494.145000) vcan0 700#041E0200
(1710919494.192000) vcan0 60A#00F93F10
(1710919494.268000) vcan0 60A#00F94110
(1710919494.332000) vcan0 60A#00F94310
(1710919494.411000) vcan0 60A#00F94510
(1710919494.490000) vcan0 60A#00F94710
(1710919494.568000) vcan0 60A#00F94910
(1710919494.631000) vcan0 60A#00F94B10
(1710919494.709000) vcan0 60A#00F94D10
(1710919494.786000) vcan0 60A#00F94F10
(1710919494.864000) vcan0 60A#00F95110
(1710919494.926000) vcan0 60A#00F95310
(1710919495.005000) vcan0 60A#00F95510
(1710919495.083000) vcan0 60A#00F95710
(1710919495.146000) vcan0 201#4020800010F40000
(1710919495.146000) vcan0 700#041E0200
(1710919495.162000) vcan0 60A#00F95910
(1710919495.238000) vcan0 60A#00F95B10
(1710919495.301000) vcan0 60A#00F95D10
(1710919495.380000) vcan0 60A#00F95F10
(1710919495.459000) vcan0 60A#00F96110
(1710919495.523000) vcan0 60A#00F96310
(1710919495.602000) vcan0 60A#00F96510
(1710919495.680000) vcan0 60A#00F96710
(1710919495.759000) vcan0 60A#00F96910
(1710919495.836000) vcan0 60A#00F96B10
(1710919495.898000) vcan0 60A#00F96D10
(1710919495.976000) vcan0 60A#00F96F10
(1710919496.053000) vcan0 60A#00F97110
(1710919496.130000) vcan0 60A#00F97310
(1710919496.146000) vcan0 201#4020800010F40000
(1710919496.146000) vcan0 700#041E0200
(1710919496.208000) vcan0 60A#00F97510
(1710919496.270000) vcan0 60A#00F97710
(1710919496.350000) vcan0 60A#00F97910
(1710919496.427000) vcan0 60A#00F97B10
(1710919496.488000) vcan0 60A#00F97D10
(1710919496.568000) vcan0 60A#00F97F10
(1710919496.646000) vcan0 60A#00F98110
(1710919496.724000) vcan0 60A#00F98310
(1710919496.788000) vcan0 60A#00F98510
(1710919496.867000) vcan0 60A#00F98710
(1710919496.945000) vcan0 60A#00F98910
(1710919497.022000) vcan0 60A#00F98B10
(1710919497.084000) vcan0 60A#00F98D10
(1710919497.145000) vcan0 201#4020800010F40000
(1710919497.145000) vcan0 700#041E0200
(1710919497.161000) vcan0 60A#00F98F10
(1710919497.237000) vcan0 60A#00F99110
(1710919497.316000) vcan0 60A#00F99310
(1710919497.378000) vcan0 60A#00F99510
(1710919497.458000) vcan0 60A#00F99710
(1710919497.536000) vcan0 60A#00F99910
(1710919497.615000) vcan0 60A#00F99B10
(1710919497.676000) vcan0 60A#00F99D10
(1710919497.755000) vcan0 60A#00F99F10
(1710919497.833000) vcan0 60A#00F9A110
(1710919497.911000) vcan0 60A#00F9A310
(1710919497.989000) vcan0 60A#00F9A510
(1710919498.051000) vcan0 60A#00F9A710
(1710919498.129000) vcan0 60A#00F9A910
(1710919498.145000) vcan0 201#4020800010F40000
(1710919498.145000) vcan0 700#041E0200
(1710919498.208000) vcan0 60A#00F9AB10
(1710919498.287000) vcan0 60A#00F9AD10
(1710919498.349000) vcan0 60A#00F9AF10
(1710919498.426000) vcan0 60A#00F9B110
(1710919498.503000) vcan0 60A#00F9B310
(1710919498.581000) vcan0 60A#00F9B510
(1710919498.644000) vcan0 60A#00F9B710
(1710919498.722000) vcan0 60A#00F9B910
(1710919498.799000) vcan0 60A#00F9BB10
(1710919498.876000) vcan0 60A#00F9BD10
(1710919498.940000) vcan0 60A#00F9BF10
(1710919499.018000) vcan0 60A#00F9C110
(1710919499.097000) vcan0 60A#00F9C310
(1710919499.144000) vcan0 201#4020800010F40000
(1710919499.144000) vcan0 700#041E0200
(1710919499.175000) vcan0 60A#00F9C510
(1710919499.254000) vcan0 60A#00F9C710
(1710919499.317000) vcan0 60A#00F9C910
(1710919499.396000) vcan0 60A#00F9CB10
(1710919499.473000) vcan0 60A#00F9CD10
(1710919499.536000) vcan0 60A#00F9CF10
(1710919499.615000) vcan0 60A#00F9D110
(1710919499.693000) vcan0 60A#00F9D310
(1710919499.771000) vcan0 60A#00F9D510
(1710919499.834000) vcan0 60A#00F9D710
(1710919499.912000) vcan0 60A#00F9D910
(1710919499.990000) vcan0 60A#00F9DB10
(1710919500.067000) vcan0 60A#00F9DD10
(1710919500.145000) vcan0 60A#00F9DF10
(1710919500.145000) vcan0 201#4020800010F40000
(1710919500.145000) vcan0 700#041E0200
(1710919500.221000) vcan0 60A#00F9E110
(1710919500.283000) vcan0 60A#00F9E310
(1710919500.361000) vcan0 60A#00F9E510
(1710919500.441000) vcan0 60A#00F9E710
(1710919500.503000) vcan0 60A#00F9E910
(1710919500.581000) vcan0 60A#00F9EB10
(1710919500.659000) vcan0 60A#00F9ED10
(1710919500.737000) vcan0 60A#00F9EF10
(1710919500.800000) vcan0 60A#00F9F110
(1710919500.878000) vcan0 60A#00F9F310
(1710919500.955000) vcan0 60A#00F9F510
(1710919501.033000) vcan0 60A#00F9F710
(1710919501.111000) vcan0 60A#00F9F910
(1710919501.143000) vcan0 201#4020800010F40000
(1710919501.143000) vcan0 700#041E0200
(1710919501.174000) vcan0 60A#00F9FB10
(1710919501.252000) vcan0 60A#00F9FD10
(1710919501.329000) vcan0 60A#00F9FF10
(1710919501.392000) vcan0 60A#00FA0110
(1710919501.471000) vcan0 60A#00FA0310
(1710919501.551000) vcan0 60A#00FA0510
(1710919501.629000) vcan0 60A#00FA0710
(1710919501.691000) vcan0 60A#00FA0910
(1710919501.768000) vcan0 60A#00FA0B10
(1710919501.845000) vcan0 60A#00FA0D10
(1710919501.924000) vcan0 60A#00FA0F10
(1710919502.002000) vcan0 60A#00FA1110
(1710919502.066000) vcan0 60A#00FA1310
(1710919502.146000) vcan0 60A#00FA1510
(1710919502.146000) vcan0 201#4020800010F40000
(1710919502.146000) vcan0 700#041E0200
(1710919502.224000) vcan0 60A#00FA1710
(1710919502.287000) vcan0 60A#00FA1910
(1710919502.365000) vcan0 60A#00FA1B10
(1710919502.442000) vcan0 60A#00FA1D10
(1710919502.521000) vcan0 60A#00FA1F10
(1710919502.584000) vcan0 60A#00FA2110
(1710919502.662000) vcan0 60A#00FA2310
(1710919502.741000) vcan0 60A#00FA2510
(1710919502.820000) vcan0 60A#00FA2710
(1710919502.881000) vcan0 60A#00FA2910
(1710919502.959000) vcan0 60A#00FA2B10
(1710919503.037000) vcan0 60A#00FA2D10
(1710919503.112000) vcan0 60A#00FA2F10
(1710919503.144000) vcan0 201#4020800010F40000
(1710919503.144000) vcan0 700#041E0200
(1710919503.191000) vcan0 60A#00FA3110
(1710919503.253000) vcan0 60A#00FA3310
(1710919503.332000) vcan0 60A#00FA3510
(1710919503.410000) vcan0 60A#00FA3710
(1710919503.487000) vcan0 60A#00FA3910
(1710919503.566000) vcan0 60A#00FA3B10
(1710919503.630000) vcan0 60A#00FA3D10
(1710919503.709000) vcan0 60A#00FA3F10
(1710919503.770000) vcan0 60A#00FA4110
(1710919503.846000) vcan0 60A#00FA4310
(1710919503.925000) vcan0 60A#00FA4510
(1710919504.005000) vcan0 60A#00FA4710
(1710919504.084000) vcan0 60A#00FA4910
(1710919504.147000) vcan0 60A#00FA4B10
(1710919504.147000) vcan0 201#4020800010F40000
(1710919504.147000) vcan0 700#041E0200
(1710919504.224000) vcan0 60A#00FA4D10
(1710919504.301000) vcan0 60A#00FA4F10
(1710919504.378000) vcan0 60A#00FA5110
(1710919504.440000) vcan0 60A#00FA5310
(1710919504.518000) vcan0 60A#00FA5510
(1710919504.595000) vcan0 60A#00FA5710
(1710919504.659000) vcan0 60A#00FA5910
(1710919504.737000) vcan0 60A#00FA5B10
(1710919504.814000) vcan0 60A#00FA5D10
(1710919504.891000) vcan0 60A#00FA5F10
(1710919504.969000) vcan0 60A#00FA6110
(1710919505.047000) vcan0 60A#00FA6310
(1710919505.111000) vcan0 60A#00FA6510
(1710919505.142000) vcan0 201#4020800010F40000
(1710919505.142000) vcan0 700#041E0200
(1710919505.188000) vcan0 60A#00FA6710
(1710919505.268000) vcan0 60A#00FA6910
(1710919505.345000) vcan0 60A#00FA6B10
(1710919505.423000) vcan0 60A#00FA6D10
(1710919505.486000) vcan0 60A#00FA6F10
(1710919505.565000) vcan0 60A#00FA7110
(1710919505.642000) vcan0 60A#00FA7310
(1710919505.720000) vcan0 60A#00FA7510
(1710919505.782000) vcan0 60A#00FA7710
(1710919505.861000) vcan0 60A#00FA7910
(1710919505.938000) vcan0 60A#00FA7B10
(1710919506.016000) vcan0 60A#00FA7D10
(1710919506.079000) vcan0 60A#00FA7F10
(1710919506.142000) vcan0 201#4020800010F40000
(1710919506.142000) vcan0 700#041E0200
(1710919506.157000) vcan0 60A#00FA8110
(1710919506.235000) vcan0 60A#00FA8310
(1710919506.313000) vcan0 60A#00FA8510
(1710919506.373000) vcan0 60A#00FA8710
(1710919506.450000) vcan0 60A#00FA8910
(1710919506.528000) vcan0 60A#00FA8B10
(1710919506.605000) vcan0 60A#00FA8D10
(1710919506.684000) vcan0 60A#00FA8F10
(1710919506.762000) vcan0 60A#00FA9110
(1710919506.825000) vcan0 60A#00FA9310
(1710919506.904000) vcan0 60A#00FA9510
(1710919506.983000) vcan0 60A#00FA9710
(1710919507.047000) vcan0 60A#00FA9910
(1710919507.125000) vcan0 60A#00FA9B10
(1710919507.141000) vcan0 201#4020800010F40000
(1710919507.141000) vcan0 700#041E0200
(1710919507.204000) vcan0 60A#00FA9D10
(1710919507.267000) vcan0 60A#00FA9F10
(1710919507.346000) vcan0 60A#00FAA110
(1710919507.424000) vcan0 60A#00FAA310
(1710919507.487000) vcan0 60A#00FAA510
(1710919507.566000) vcan0 60A#00FAA710
(1710919507.643000) vcan0 60A#00FAA910
(1710919507.721000) vcan0 60A#00FAAB10
(1710919507.799000) vcan0 60A#00FAAD10
(1710919507.863000) vcan0 60A#00FAAF10
(1710919507.942000) vcan0 60A#00FAB110
(1710919508.004000) vcan0 60A#00FAB310
(1710919508.083000) vcan0 60A#00FAB510
(1710919508.146000) vcan0 201#4020800010F40000
(1710919508.146000) vcan0 700#041E0200
(1710919508.162000) vcan0 60A#00FAB710
(1710919508.238000) vcan0 60A#00FAB910
(1710919508.317000) vcan0 60A#00FABB10
(1710919508.378000) vcan0 60A#00FABD10
(1710919508.457000) vcan0 60A#00FABF10
(1710919508.533000) vcan0 60A#00FAC110
(1710919508.611000) vcan0 60A#00FAC310
(1710919508.689000) vcan0 60A#00FAC510
(1710919508.768000) vcan0 60A#00FAC710
(1710919508.830000) vcan0 60A#00FAC910
(1710919508.909000) vcan0 60A#00FACB10
(1710919508.972000) vcan0 60A#00FACD10
(1710919509.050000) vcan0 60A#00FACF10
(1710919509.127000) vcan0 60A#00FAD110
(1710919509.142000) vcan0 201#4020800010F40000
(1710919509.142000) vcan0 700#041E0200
(1710919509.204000) vcan0 60A#00FAD310
(1710919509.282000) vcan0 60A#00FAD510
(1710919509.344000) vcan0 60A#00FAD710
(1710919509.423000) vcan0 60A#00FAD910
(1710919509.500000) vcan0 60A#00FADB10
(1710919509.578000) vcan0 60A#00FADD10
(1710919509.656000) vcan0 60A#00FADF10
(1710919509.719000) vcan0 60A#00FAE110
(1710919509.798000) vcan0 60A#00FAE310
(1710919509.876000) vcan0 60A#00FAE510
(1710919509.952000) vcan0 60A#00FAE710
(1710919510.014000) vcan0 60A#00FAE910
(1710919510.093000) vcan0 60A#00FAEB10
(1710919510.157000) vcan0 201#4020800010F40000
(1710919510.157000) vcan0 700#041E0200
(1710919510.173000) vcan0 60A#00FAED10
(1710919510.250000) vcan0 60A#00FAEF10
(1710919510.328000) vcan0 60A#00FAF110
(1710919510.390000) vcan0 60A#00FAF310
(1710919510.469000) vcan0 60A#00FAF510
(1710919510.548000) vcan0 60A#00FAF710
(1710919510.611000) vcan0 60A#00FAF910
(1710919510.688000) vcan0 60A#00FAFB10
(1710919510.765000) vcan0 60A#00FAFD10
(1710919510.843000) vcan0 60A#00FAFF10
(1710919510.921000) vcan0 60A#00FB0110
(1710919510.997000) vcan0 60A#00FB0310
(1710919511.060000) vcan0 60A#00FB0510
(1710919511.137000) vcan0 60A#00FB0710
(1710919511.153000) vcan0 201#4020800010F40000
(1710919511.153000) vcan0 700#041E0200
(1710919511.215000) vcan0 60A#00FB0910
(1710919511.293000) vcan0 60A#00FB0B10
(1710919511.357000) vcan0 60A#00FB0D10
(1710919511.434000) vcan0 60A#00FB0F10
(1710919511.513000) vcan0 60A#00FB1110
(1710919511.592000) vcan0 60A#00FB1310
(1710919511.655000) vcan0 60A#00FB1510
(1710919511.733000) vcan0 60A#00FB1710
(1710919511.811000) vcan0 60A#00FB1910
(1710919511.873000) vcan0 60A#00FB1B10
(1710919511.951000) vcan0 60A#00FB1D10
(1710919512.027000) vcan0 60A#00FB1F10
(1710919512.107000) vcan0 60A#00FB2110
(1710919512.154000) vcan0 201#4020800010F40000
(1710919512.154000) vcan0 700#041E0200
(1710919512.184000) vcan0 60A#00FB2310
(1710919512.248000) vcan0 60A#00FB2510
(1710919512.327000) vcan0 60A#00FB2710
(1710919512.405000) vcan0 60A#01FB2910
(1710919512.405000) vcan0 60B#024FA3F9801F415A
(1710919512.405000) vcan0 60C#02A5AD7B82204C
(1710919512.405000) vcan0 60D#027EAFA070800505
(1710919512.469000) vcan0 60A#01FB2B10
(1710919512.469000) vcan0 60B#024FA3F9801F4157
(1710919512.469000) vcan0 60C#02A5AD7B822048
(1710919512.469000) vcan0 60D#027E8FA070800505
(1710919512.549000) vcan0 60A#00FB2D10
(1710919512.627000) vcan0 60A#00FB2F10
(1710919512.706000) vcan0 60A#00FB3110
(1710919512.783000) vcan0 60A#00FB3310
(1710919512.845000) vcan0 60A#00FB3510
(1710919512.923000) vcan0 60A#00FB3710
(1710919513.002000) vcan0 60A#00FB3910
(1710919513.081000) vcan0 60A#00FB3B10
(1710919513.144000) vcan0 60A#00FB3D10
(1710919513.144000) vcan0 201#4020800010F40000
(1710919513.160000) vcan0 700#041E0200
(1710919513.224000) vcan0 60A#00FB3F10
(1710919513.287000) vcan0 60A#00FB4110
(1710919513.365000) vcan0 60A#00FB4310
(1710919513.442000) vcan0 60A#00FB4510
(1710919513.520000) vcan0 60A#00FB4710
(1710919513.583000) vcan0 60A#00FB4910
(1710919513.661000) vcan0 60A#00FB4B10
(1710919513.739000) vcan0 60A#00FB4D10
(1710919513.817000) vcan0 60A#00FB4F10
(1710919513.896000) vcan0 60A#00FB5110
(1710919513.974000) vcan0 60A#00FB5310
(1710919514.036000) vcan0 60A#00FB5510
(1710919514.114000) vcan0 60A#00FB5710
(1710919514.160000) vcan0 201#4020800010F40000
(1710919514.160000) vcan0 700#041E0200
(1710919514.191000) vcan0 60A#00FB5910
(1710919514.253000) vcan0 60A#00FB5B10
(1710919514.330000) vcan0 60A#00FB5D10
(1710919514.407000) vcan0 60A#00FB5F10
(1710919514.486000) vcan0 60A#00FB6110
(1710919514.548000) vcan0 60A#00FB6310
(1710919514.642000) vcan0 60A#00FB6510
(1710919514.704000) vcan0 60A#00FB6710
(1710919514.782000) vcan0 60A#00FB6910
(1710919514.859000) vcan0 60A#00FB6B10
(1710919514.937000) vcan0 60A#00FB6D10
(1710919514.999000) vcan0 60A#00FB6F10
(1710919515.078000) vcan0 60A#00FB7110
(1710919515.156000) vcan0 60A#00FB7310
(1710919515.156000) vcan0 201#4020800010F40000
(1710919515.156000) vcan0 700#041E0200
(1710919515.235000) vcan0 60A#00FB7510
(1710919515.297000) vcan0 60A#00FB7710
(1710919515.375000) vcan0 60A#00FB7910
(1710919515.452000) vcan0 60A#00FB7B10
(1710919515.530000) vcan0 60A#00FB7D10
(1710919515.607000) vcan0 60A#00FB7F10
(1710919515.686000) vcan0 60A#00FB8110
(1710919515.750000) vcan0 60A#00FB8310
(1710919515.827000) vcan0 60A#00FB8510
(1710919515.890000) vcan0 60A#00FB8710
(1710919515.967000) vcan0 60A#00FB8910
(1710919516.044000) vcan0 60A#00FB8B10
(1710919516.122000) vcan0 60A#00FB8D10
(1710919516.154000) vcan0 201#4020800010F40000
(1710919516.154000) vcan0 700#041E0200
(1710919516.201000) vcan0 60A#00FB8F10
(1710919516.262000) vcan0 60A#00FB9110
